(1544451790.740482) can0 090#00000000
(1544451790.740489) can0 0C6#7FA37FF67FFFAA40
(1544451790.740490) can0 242#5280FFFFFFFFFD
(1544451790.740491) can0 29C#0000FFFFFFFFFFFF
(1544451790.740492) can0 352#5C000000
(1544451790.740494) can0 217#FEFFF8000000C0
(1544451790.740495) can0 2C6#FFFFFFFFFFF0
(1544451790.740496) can0 1F6#1E2081FF80FEFFFE
(1544451790.740497) can0 186#5D542E52E5FFF9
(1544451790.740498) can0 18A#2E500006B600
(1544451790.740499) can0 12E#CC7FFC7FE0FFFF00
(1544451790.740500) can0 090#00000000
(1544451790.740501) can0 0C6#7FA37FF67FFFAC3E
(1544451790.740502) can0 29A#0000000000000BF4
(1544451790.740503) can0 2B7#00E0FFFE01
(1544451790.740504) can0 4F8#4A1030FFFF03FF00
(1544451790.740504) can0 1F6#1E2081FF80FEFFFE
(1544451790.740505) can0 186#5D302E52E5FFF9
(1544451790.740506) can0 18A#2E500006B600
(1544451790.740507) can0 12E#CC7FFC7FE0FFFF00
(1544451790.740507) can0 090#00000000
(1544451790.740508) can0 0C6#7FA27F927FFFAEA1
(1544451790.740509) can0 242#5280FFFFFFFFFD
(1544451790.740526) can0 29C#0000FFFFFFFFFFFF
(1544451790.740527) can0 354#0000000000000000
(1544451790.740528) can0 3B7#FFFF7FCFFE40
(1544451790.763172) can0 217#FEFFF8000000C0
(1544451790.763179) can0 2C6#FFFFFFFFFFF0
(1544451790.763180) can0 1F6#1E2081FF80FEFFFE
(1544451790.763181) can0 186#5D622E52E5FFF9
(1544451790.763182) can0 18A#2E500006B600
(1544451790.763183) can0 500#02EDA0A96E
(1544451790.763185) can0 12E#CC7FFC7FE0FFFF00
(1544451790.763186) can0 090#00000000
(1544451790.763187) can0 0C6#7FA27FEC7FFFB045
(1544451790.763188) can0 29A#0000000000000CF3
(1544451790.763189) can0 2B7#00E0FFFE01
(1544451790.763190) can0 1F6#1E2081FF80FEFFFE
(1544451790.763190) can0 186#5D302E52E5FFF9
(1544451790.763191) can0 18A#2E500006B600
(1544451790.763192) can0 2BC#94EF107689A3A260
(1544451790.763193) can0 350#C716B99414986485
(1544451790.763194) can0 55D#00D5600092800000
(1544451790.763195) can0 12E#CC7FFC7FE0FFFF00
(1544451790.763196) can0 090#00000000
(1544451790.763197) can0 0C6#7FA27FF67FFFB239
(1544451790.763198) can0 242#5280FFFFFFFFFD
(1544451790.763199) can0 29C#0000FFFFFFFFFFFF
(1544451790.763200) can0 352#5C000000
(1544451790.763201) can0 217#FEFFF8000000C0
(1544451790.763202) can0 2C6#FFFFFFFFFFF0
(1544451790.789370) can0 1F6#1E2081FF80FEFFFE
(1544451790.789412) can0 186#5D522E52E5FFF9
(1544451790.789415) can0 18A#2E500006B600
(1544451790.789417) can0 12E#CC7FFC7FF0FFFF00
(1544451790.789420) can0 090#00000000
(1544451790.789423) can0 0C6#7FA280007FFFB42C
(1544451790.789427) can0 29A#0000000000000DF2
(1544451790.789431) can0 2B7#00E0FFFE01
(1544451790.789434) can0 1F6#1E2081FF80FEFFFE
(1544451790.789437) can0 186#5D322E52E5FFF9
(1544451790.789441) can0 18A#2E500006B600
(1544451790.789444) can0 5DE#0008000000000002
(1544451790.789448) can0 12E#CC7FFC7FF0FFFF00
(1544451790.789451) can0 090#00000000
(1544451790.789455) can0 0C6#7FA2800A7FFFB620
(1544451790.789459) can0 242#5280FFFFFFFFFD
(1544451790.789462) can0 29C#0000FFFFFFFFFFFF
(1544451790.789466) can0 354#0000000000000000
(1544451790.789468) can0 217#FEFFF8000000C0
(1544451790.789471) can0 2C6#FFFFFFFFFFF0
(1544451790.789474) can0 1F6#1E2081FF80FEFFFE
(1544451790.789476) can0 186#5D522E52E5FFF9
(1544451790.789478) can0 18A#2E500006B600
(1544451790.789481) can0 673#0018FF49FFFF00
(1544451790.789483) can0 12E#CC7FFD7FE0FFFF00
(1544451790.806001) can0 090#00000000
(1544451790.806011) can0 0C6#7FA280007FFFB828
(1544451790.806012) can0 29A#0000000000000EF1
(1544451790.806013) can0 2B7#00E0FFFE01
(1544451790.806014) can0 5D7#000003274250D2
(1544451790.806015) can0 1F6#1E2081FF80FEFFFE
(1544451790.806016) can0 186#5D402E52E5FFF9
(1544451790.806017) can0 18A#2E500006B600
(1544451790.806018) can0 66A#2FFF600101C01F00
(1544451790.806019) can0 511#00F520538BFAE7
(1544451790.806020) can0 5DA#FF7100004EFFFF00
(1544451790.806021) can0 648#FFFFF07FFE7FFE00
(1544451790.806022) can0 65C#FEFF
(1544451790.806022) can0 657#0000
(1544451790.806023) can0 12E#CC7FFD7FE0FFFF00
(1544451790.806024) can0 090#00000000
(1544451790.806025) can0 0C6#7FA280007FFFBA26
(1544451790.806026) can0 242#5280FFFFFFFFFD
(1544451790.806027) can0 29C#0000FFFFFFFFFFFF
(1544451790.806028) can0 352#5C000000
(1544451790.806029) can0 653#00400800
(1544451790.806030) can0 217#FEFFF8000000C0
(1544451790.806031) can0 2C6#FFFFFFFFFFF0
(1544451790.806032) can0 1F6#1E2081FF80FEFFFE
(1544451790.806033) can0 186#5D522E52E5FFF9
(1544451790.806033) can0 18A#2E500006B600
(1544451790.806034) can0 4AC#80
(1544451790.829568) can0 45C#00000000
(1544451790.829582) can0 575#15D4
(1544451790.829584) can0 5DF#0084
(1544451790.829587) can0 12E#CC7FFC7FD0FFFF00
(1544451790.829590) can0 090#00000000
(1544451790.829593) can0 0C6#7FA280007FFFBC24
(1544451790.829596) can0 29A#0000000000000FF0
(1544451790.829600) can0 2B7#00E0FFFE01
(1544451790.829602) can0 666#7D000000
(1544451790.829604) can0 564#D640
(1544451790.829607) can0 1F6#1E2081FF80FEFFFE
(1544451790.829610) can0 186#5D302E52E5FFF9
(1544451790.829612) can0 18A#2E500006B600
(1544451790.829614) can0 552#15D4
(1544451790.829617) can0 12E#CC7FFC7FD0FFFF00
(1544451790.829619) can0 090#00000000
(1544451790.829622) can0 0C6#7FA280007FFFBE22
(1544451790.829624) can0 242#5280FFFFFFFFFD
(1544451790.829627) can0 29C#0000FFFFFFFFFFFF
(1544451790.829629) can0 354#0000000000000000
(1544451790.829631) can0 217#FEFFF8000000C0
(1544451790.829634) can0 2C6#FFFFFFFFFFF0
(1544451790.829636) can0 1F6#1E2081FF80FEFFFE
(1544451790.829638) can0 186#5D542E52E5FFF9
(1544451790.829641) can0 18A#2E500006B600
(1544451790.829643) can0 12E#CC7FFC7FD0FFFF00
(1544451790.829645) can0 090#00000000
(1544451790.829647) can0 0C6#7FA280007FFFA040
(1544451790.853466) can0 29A#00000000000000FF
(1544451790.853482) can0 2B7#00E0FFFE01
(1544451790.853485) can0 4F8#4A1030FFFF03FF00
(1544451790.853488) can0 1F6#1E2081FF80FEFFFE
(1544451790.853491) can0 186#5D302E52E5FFF9
(1544451790.853493) can0 18A#2E500006B600
(1544451790.853496) can0 12E#CC7FFC7FD0FFFF00
(1544451790.853499) can0 090#00000000
(1544451790.853502) can0 0C6#7FA280007FFFA23E
(1544451790.853505) can0 242#5280FFFFFFFFFD
(1544451790.853508) can0 29C#0000FFFFFFFFFFFF
(1544451790.853510) can0 352#5C000000
(1544451790.853513) can0 3B7#FFFF7FCFFE40
(1544451790.853516) can0 217#FEFFF8000000C0
(1544451790.853519) can0 2C6#FFFFFFFFFFF0
(1544451790.853521) can0 1F6#1E2081FF80FEFFFE
(1544451790.853524) can0 186#5D302E52E5FFF9
(1544451790.853526) can0 18A#2E500006B600
(1544451790.853529) can0 500#02E020755D
(1544451790.853532) can0 12E#CC7FFC7FE0FFFF00
(1544451790.853534) can0 090#00000000
(1544451790.853537) can0 0C6#7FA280007FFFA43C
(1544451790.853540) can0 29A#00000000000001FE
(1544451790.853543) can0 2B7#00E0FFFE01
(1544451790.853546) can0 1F6#1E2081FF80FEFFFE
(1544451790.879115) can0 186#5D542E52E5FFF9
(1544451790.879129) can0 18A#2E500006B600
(1544451790.879132) can0 2BC#9474C26D1CD4A4AF
(1544451790.879135) can0 350#C716B99414986485
(1544451790.879138) can0 55D#00D5600092800000
(1544451790.879141) can0 12E#CC7FFC7FE0FFFF00
(1544451790.879143) can0 090#00000000
(1544451790.879146) can0 0C6#7FA280007FFFA63A
(1544451790.879149) can0 242#5280FFFFFFFFFD
(1544451790.879152) can0 29C#0000FFFFFFFFFFFF
(1544451790.879154) can0 354#0000000000000000
(1544451790.879157) can0 217#FEFFF8000000C0
(1544451790.879160) can0 2C6#FFFFFFFFFFF0
(1544451790.879163) can0 1F6#1E2081FF80FEFFFE
(1544451790.879166) can0 186#5D3E2E52E5FFF9
(1544451790.879168) can0 18A#2E500006B600
(1544451790.879171) can0 12E#CC7FFC7FF0FFFF00
(1544451790.879174) can0 090#00000000
(1544451790.879176) can0 0C6#7FA280007FFFA838
(1544451790.879179) can0 29A#00000000000002FD
(1544451790.879182) can0 2B7#00E0FFFE01
(1544451790.879184) can0 1F6#1E2081FF80FEFFFE
(1544451790.879188) can0 186#5D542E52E5FFF9
(1544451790.879191) can0 18A#2E500006B600
(1544451790.879193) can0 5DE#0008000000000002
(1544451790.895719) can0 12E#CC7FFC7FF0FFFF00
(1544451790.895731) can0 090#00000000
(1544451790.895735) can0 0C6#7FA280007FFFAA36
(1544451790.895738) can0 242#5280FFFFFFFFFD
(1544451790.895741) can0 29C#0000FFFFFFFFFFFF
(1544451790.895744) can0 352#5C000000
(1544451790.895747) can0 217#FEFFF8000000C0
(1544451790.895750) can0 2C6#FFFFFFFFFFF0
(1544451790.895752) can0 1F6#1E2081FF80FEFFFE
(1544451790.895756) can0 186#5D2E2E52E5FFF9
(1544451790.895759) can0 18A#2E500006B600
(1544451790.895761) can0 673#0018FF49FFFF00
(1544451790.895764) can0 12E#CC7FFB7FF0FFFF00
(1544451790.895767) can0 090#00000000
(1544451790.895770) can0 0C6#7FA280007FFFAC34
(1544451790.895772) can0 29A#00000000000003FC
(1544451790.895775) can0 2B7#00E0FFFE01
(1544451790.895777) can0 5D7#000003274250D2
(1544451790.895780) can0 1F6#1E2081FF80FEFFFE
(1544451790.895783) can0 186#5D562E52E5FFF9
(1544451790.895785) can0 18A#2E500006B600
(1544451790.895788) can0 66A#2FFF600101C01F00
(1544451790.895792) can0 511#0034E90CF607CA
(1544451790.895795) can0 5DA#FF7100004EFFFF00
(1544451790.895797) can0 648#FFFFF07FFE7FFE00
(1544451790.919116) can0 65C#FEFF
(1544451790.919130) can0 657#0000
(1544451790.919135) can0 69F#7516451F
(1544451790.919138) can0 12E#CC7FFB7FF0FFFF00
(1544451790.919140) can0 090#00000000
(1544451790.919144) can0 0C6#7FA280007FFFAE32
(1544451790.919147) can0 242#5280FFFFFFFFFD
(1544451790.919150) can0 29C#0000FFFFFFFFFFFF
(1544451790.919152) can0 354#0000000000000000
(1544451790.919155) can0 653#00400800
(1544451790.919158) can0 217#FEFFF8000000C0
(1544451790.919160) can0 2C6#FFFFFFFFFFF0
(1544451790.919164) can0 1F6#1E2081FF80FEFFFE
(1544451790.919167) can0 186#5D2E2E52E5FFF9
(1544451790.919170) can0 18A#2E500006B600
(1544451790.919172) can0 4AC#80
(1544451790.919175) can0 45C#00000000
(1544451790.919177) can0 575#1574
(1544451790.919180) can0 5DF#0084
(1544451790.919183) can0 12E#CC7FFC7FF0FFFF00
(1544451790.919185) can0 090#00000000
(1544451790.919188) can0 0C6#7FA280007FFFB030
(1544451790.919191) can0 29A#00000000000004FB
(1544451790.919194) can0 2B7#00E0FFFE01
(1544451790.919196) can0 666#7D000000
(1544451790.919198) can0 564#EC70
(1544451790.919201) can0 1F6#1E2081FF80FEFFFE
(1544451790.919204) can0 186#5D642E52E5FFF9
(1544451790.919206) can0 18A#2E500006B600
(1544451790.919208) can0 552#1574
(1544451790.940305) can0 12E#CC7FFC7FF0FFFF00
(1544451790.940317) can0 090#00000000
(1544451790.940321) can0 0C6#7FA280007FFFB22E
(1544451790.940324) can0 242#5280FFFFFFFFFD
(1544451790.940327) can0 29C#0000FFFFFFFFFFFF
(1544451790.940329) can0 352#5C000000
(1544451790.940332) can0 217#FEFFF8000000C0
(1544451790.940335) can0 2C6#FFFFFFFFFFF0
(1544451790.940338) can0 1F6#1E2081FF80FEFFFE
(1544451790.940341) can0 186#5D302E52E5FFF9
(1544451790.940343) can0 18A#2E500006B600
(1544451790.940346) can0 12E#CC7FFE7FE0FFFF00
(1544451790.940349) can0 090#00000000
(1544451790.940352) can0 0C6#7FA280007FFFB42C
(1544451790.940355) can0 29A#00000000000005FA
(1544451790.940358) can0 2B7#00E0FFFE01
(1544451790.940360) can0 4F8#4A1030FFFF03FF00
(1544451790.940363) can0 1F6#1E2081FF80FEFFFE
(1544451790.940366) can0 186#5D522E52E5FFF9
(1544451790.940369) can0 18A#2E500006B600
(1544451790.940371) can0 12E#CC7FFE7FE0FFFF00
(1544451790.940374) can0 090#00000000
(1544451790.940377) can0 0C6#7FA280007FFFB62A
(1544451790.940379) can0 242#5280FFFFFFFFFD
(1544451790.940382) can0 29C#0000FFFFFFFFFFFF
(1544451790.962556) can0 354#0000000000000000
(1544451790.962579) can0 3B7#FFFF7FCFFE40
(1544451790.962582) can0 217#FEFFF8000000C0
(1544451790.962585) can0 2C6#FFFFFFFFFFF0
(1544451790.962588) can0 1F6#1E2081FF80FEFFFE
(1544451790.962591) can0 186#5D302E52E5FFF9
(1544451790.962595) can0 18A#2E500006B600
(1544451790.962598) can0 500#025CB12D57
(1544451790.962601) can0 12E#CC7FFE7FD0FFFF00
(1544451790.962604) can0 090#00000000
(1544451790.962607) can0 0C6#7FA280007FFFB828
(1544451790.962610) can0 29A#00000000000006F9
(1544451790.962612) can0 2B7#00E0FFFE01
(1544451790.962615) can0 1F6#1E2081FF80FEFFFE
(1544451790.962618) can0 186#5D542E52E5FFF9
(1544451790.962620) can0 18A#2E500006B600
(1544451790.962623) can0 2BC#94A0D7CBC1B1B27E
(1544451790.962626) can0 350#C716B99414986485
(1544451790.962629) can0 55D#00D5600092800000
(1544451790.962631) can0 12E#CC7FFE7FD0FFFF00
(1544451790.962637) can0 090#00000000
(1544451790.962640) can0 0C6#7FA280007FFFBA26
(1544451790.962644) can0 242#5280FFFFFFFFFD
(1544451790.962647) can0 29C#0000FFFFFFFFFFFF
(1544451790.962650) can0 352#5C000000
(1544451790.986240) can0 217#FEFFF8000000C0
(1544451790.986265) can0 2C6#FFFFFFFFFFF0
(1544451790.986269) can0 1F6#1E2081FF80FEFFFE
(1544451790.986272) can0 186#5D302E52E5FFF9
(1544451790.986276) can0 18A#2E500006B600
(1544451790.986279) can0 12E#CC7FFD7FE0FFFF00
(1544451790.986284) can0 090#00000000
(1544451790.986288) can0 0C6#7FA280007FFFBC24
(1544451790.986291) can0 29A#00000000000007F8
(1544451790.986295) can0 2B7#00E0FFFE01
(1544451790.986298) can0 1F6#1E2081FF80FEFFFE
(1544451790.986301) can0 186#5D622E52E5FFF9
(1544451790.986304) can0 18A#2E500006B600
(1544451790.986307) can0 5DE#0008000000000002
(1544451790.986310) can0 12E#CC7FFD7FE0FFFF00
(1544451790.986313) can0 090#00000000
(1544451790.986316) can0 0C6#7FA280007FFFBE22
(1544451790.986319) can0 242#5280FFFFFFFFFD
(1544451790.986322) can0 29C#0000FFFFFFFFFFFF
(1544451790.986325) can0 354#0000000000000000
(1544451790.986328) can0 217#FEFFF8000000C0
(1544451790.986331) can0 2C6#FFFFFFFFFFF0
(1544451790.986336) can0 1F6#1E2081FF80FEFFFE
(1544451790.986338) can0 186#5D302E52E5FFF9
(1544451790.986341) can0 18A#2E500006B600
(1544451791.003710) can0 673#0018FF49FFFF00
(1544451791.003737) can0 12E#CD7FFC7FF0FFFF00
(1544451791.003741) can0 090#00000000
(1544451791.003745) can0 0C6#7FA280007FFFA040
(1544451791.003749) can0 29A#00000000000008F7
(1544451791.003753) can0 2B7#00E0FFFE01
(1544451791.003758) can0 5D7#000003274250D2
(1544451791.003762) can0 1F6#1E2081FF80FEFFFE
(1544451791.003766) can0 186#5D522E52E5FFF9
(1544451791.003770) can0 18A#2E500006B600
(1544451791.003773) can0 66A#2FFF600101C01F00
(1544451791.003777) can0 511#0073B2C56114AD
(1544451791.003781) can0 5DA#FF7100004EFFFF00
(1544451791.003785) can0 648#FFFFF07FFE7FFE00
(1544451791.003788) can0 65C#FEFF
(1544451791.003791) can0 657#0000
(1544451791.003795) can0 12E#CD7FFC7FF0FFFF00
(1544451791.003799) can0 090#00000000
(1544451791.003803) can0 0C6#7FA280007FFFA23E
(1544451791.003806) can0 242#5280FFFFFFFFFD
(1544451791.003810) can0 29C#0000FFFFFFFFFFFF
(1544451791.003813) can0 352#5C000000
(1544451791.003816) can0 653#00400800
(1544451791.003819) can0 217#FEFFF8000000C0
(1544451791.003823) can0 2C6#FFFFFFFFFFF0
(1544451791.003826) can0 1F6#1E2081FF80FEFFFE
(1544451791.003830) can0 186#5D322E52E5FFF9
(1544451791.029546) can0 18A#2E500006B600
(1544451791.029573) can0 4AC#80
(1544451791.029577) can0 45C#00000000
(1544451791.029582) can0 575#0814
(1544451791.029585) can0 5DF#0084
(1544451791.029589) can0 12E#CC7FFC7FE0FFFF00
(1544451791.029593) can0 090#00000000
(1544451791.029597) can0 0C6#7FA280007FFFA43C
(1544451791.029601) can0 29A#00000000000009F6
(1544451791.029604) can0 2B7#00E0FFFE01
(1544451791.029608) can0 666#7D000000
(1544451791.029611) can0 564#C250
(1544451791.029615) can0 1F6#1E2081FF80FEFFFE
(1544451791.029619) can0 186#5D522E52E5FFF9
(1544451791.029622) can0 18A#2E500006B600
(1544451791.029625) can0 552#0814
(1544451791.029634) can0 12E#CC7FFC7FE0FFFF00
(1544451791.029637) can0 090#00000000
(1544451791.029641) can0 0C6#7FA280007FFFA63A
(1544451791.029644) can0 242#5280FFFFFFFFFD
(1544451791.029648) can0 29C#0000FFFFFFFFFFFF
(1544451791.029652) can0 354#0000000000000000
(1544451791.029656) can0 217#FEFFF8000000C0
(1544451791.029659) can0 2C6#FFFFFFFFFFF0
(1544451791.029663) can0 1F6#1E2081FF80FEFFFE
(1544451791.029666) can0 186#5D402E52E5FFF9
(1544451791.029670) can0 18A#2E500006B600
(1544451791.029673) can0 12E#CD7FFC7FE0FFFF00
(1544451791.053412) can0 090#00000000
(1544451791.053439) can0 0C6#7FA280007FFFA838
(1544451791.053443) can0 29A#0000000000000AF5
(1544451791.053449) can0 2B7#00E0FFFE01
(1544451791.053453) can0 4F8#4A1030FFFF03FF00
(1544451791.053456) can0 1F6#1E2081FF80FEFFFE
(1544451791.053460) can0 186#5D522E52E5FFF9
(1544451791.053464) can0 18A#2E500006B600
(1544451791.053468) can0 12E#CD7FFC7FE0FFFF00
(1544451791.053471) can0 090#00000000
(1544451791.053475) can0 0C6#7FA280007FFFAA36
(1544451791.053479) can0 242#5280FFFFFFFFFD
(1544451791.053482) can0 29C#0000FFFFFFFFFFFF
(1544451791.053516) can0 352#5C000000
(1544451791.053520) can0 3B7#FFFF7FCFFE40
(1544451791.053525) can0 217#FEFFF8000000C0
(1544451791.053529) can0 2C6#FFFFFFFFFFF0
(1544451791.053534) can0 1F6#1E2081FF80FEFFFE
(1544451791.053538) can0 186#5D302E52E5FFF9
(1544451791.053542) can0 18A#2E500006B600
(1544451791.053545) can0 500#0266C26881
(1544451791.053550) can0 12E#CD7FFC7FE0FFFF00
(1544451791.053553) can0 090#00000000
(1544451791.053557) can0 0C6#7FA280007FFFAC34
(1544451791.053561) can0 29A#0000000000000BF4
(1544451791.053565) can0 2B7#00E0FFFE01
(1544451791.073669) can0 1F6#1E2081FF80FEFFFE
(1544451791.073699) can0 186#5D542E52E5FFF9
(1544451791.073704) can0 18A#2E500006B600
(1544451791.073708) can0 2BC#94C604091E82457F
(1544451791.073713) can0 350#C716B99414986485
(1544451791.073719) can0 55D#00D5600092800000
(1544451791.073724) can0 12E#CD7FFC7FE0FFFF00
(1544451791.073728) can0 090#00000000
(1544451791.073733) can0 0C6#7FA280007FFFAE32
(1544451791.073738) can0 242#5280FFFFFFFFFD
(1544451791.073742) can0 29C#0000FFFFFFFFFFFF
(1544451791.073746) can0 354#0000000000000000
(1544451791.073750) can0 217#FEFFF8000000C0
(1544451791.073755) can0 2C6#FFFFFFFFFFF0
(1544451791.073759) can0 1F6#1E2081FF80FEFFFE
(1544451791.073764) can0 186#5D302E52E5FFF9
(1544451791.073768) can0 18A#2E500006B600
(1544451791.073773) can0 12E#CD7FFC7FE0FFFF00
(1544451791.073778) can0 090#00000000
(1544451791.073782) can0 0C6#7FA280007FFFB030
(1544451791.073786) can0 29A#0000000000000CF3
(1544451791.073790) can0 2B7#00E0FFFE01
(1544451791.073794) can0 1F6#1E2081FF80FEFFFE
(1544451791.073798) can0 186#5D542E52E5FFF9
(1544451791.095715) can0 18A#2E500006B600
(1544451791.095743) can0 5DE#0008000000000002
(1544451791.095748) can0 12E#CD7FFC7FE0FFFF00
(1544451791.095752) can0 090#00000000
(1544451791.095756) can0 0C6#7FA280007FFFB22E
(1544451791.095760) can0 242#5280FFFFFFFFFD
(1544451791.095764) can0 29C#0000FFFFFFFFFFFF
(1544451791.095769) can0 352#5C000000
(1544451791.095773) can0 217#FEFFF8000000C0
(1544451791.095777) can0 2C6#FFFFFFFFFFF0
(1544451791.095781) can0 1F6#1E2081FF80FEFFFE
(1544451791.095788) can0 186#5D3E2E52E5FFF9
(1544451791.095792) can0 18A#2E500006B600
(1544451791.095796) can0 673#0018FF49FFFF00
(1544451791.095800) can0 12E#CD7FFC7FE0FFFF00
(1544451791.095803) can0 090#00000000
(1544451791.095807) can0 0C6#7FA280007FFFB42C
(1544451791.095811) can0 29A#0000000000000DF2
(1544451791.095815) can0 2B7#00E0FFFE01
(1544451791.095819) can0 5D7#000003274250D2
(1544451791.095823) can0 1F6#1E2081FF80FEFFFE
(1544451791.095826) can0 186#5D542E52E5FFF9
(1544451791.095829) can0 18A#2E500006B600
(1544451791.095833) can0 66A#2FFF600101C01F00
(1544451791.095837) can0 511#00B27B7ECC2190
(1544451791.095840) can0 5DA#FF7100004EFFFF00
(1544451791.113963) can0 648#FFFFF07FFE7FFE00
(1544451791.113991) can0 65C#FEFF
(1544451791.113996) can0 657#0000
(1544451791.114000) can0 12E#CD7FFC7FE0FFFF00
(1544451791.114005) can0 090#00000000
(1544451791.114011) can0 0C6#7FA280007FFFB62A
(1544451791.114016) can0 242#5280FFFFFFFFFD
(1544451791.114020) can0 29C#0000FFFFFFFFFFFF
(1544451791.114025) can0 354#0000000000000000
(1544451791.114028) can0 653#00400800
(1544451791.114033) can0 217#FEFFF8000000C0
(1544451791.114037) can0 2C6#FFFFFFFFFFF0
(1544451791.114042) can0 1F6#1E2081FF80FEFFFE
(1544451791.114046) can0 186#5D302E52E5FFF9
(1544451791.114051) can0 18A#2E500006B600
(1544451791.114055) can0 4AC#80
(1544451791.114059) can0 45C#00000000
(1544451791.114063) can0 575#00A4
(1544451791.114066) can0 5DF#0084
(1544451791.114070) can0 12E#CD7FFC7FF0FFFF00
(1544451791.114074) can0 090#00000000
(1544451791.114078) can0 0C6#7FA280007FFFB828
(1544451791.114082) can0 29A#0000000000000EF1
(1544451791.114086) can0 2B7#00E0FFFE01
(1544451791.114090) can0 666#7D000000
(1544451791.114094) can0 564#EA10
(1544451791.114098) can0 1F6#1E2081FF80FEFFFE
(1544451791.114102) can0 186#5D542E52E5FFF9
(1544451791.140222) can0 18A#2E500006B600
(1544451791.140252) can0 552#00A4
(1544451791.140258) can0 12E#CD7FFC7FF0FFFF00
(1544451791.140263) can0 090#00000000
(1544451791.140268) can0 0C6#7FA280007FFFBA26
(1544451791.140273) can0 242#5280FFFFFFFFFD
(1544451791.140277) can0 29C#0000FFFFFFFFFFFF
(1544451791.140281) can0 352#5C000000
(1544451791.140286) can0 217#FEFFF8000000C0
(1544451791.140290) can0 2C6#FFFFFFFFFFF0
(1544451791.140295) can0 1F6#1E2081FF80FEFFFE
(1544451791.140299) can0 186#5D2E2E52E5FFF9
(1544451791.140304) can0 18A#2E500006B600
(1544451791.140309) can0 12E#CD7FFC7FE0FFFF00
(1544451791.140313) can0 090#00000000
(1544451791.140317) can0 0C6#7FA280007FFFBC24
(1544451791.140322) can0 29A#0000000000000FF0
(1544451791.140326) can0 2B7#00E0FFFE01
(1544451791.140330) can0 4F8#4A1030FFFF03FF00
(1544451791.140334) can0 1F6#1E2081FF80FEFFFE
(1544451791.140338) can0 186#5D642E52E5FFF9
(1544451791.140342) can0 18A#2E500006B600
(1544451791.140346) can0 12E#CD7FFC7FE0FFFF00
(1544451791.140351) can0 090#00000000
(1544451791.140355) can0 0C6#7FA280007FFFBE22
(1544451791.140359) can0 242#5280FFFFFFFFFD
(1544451791.160266) can0 29C#0000FFFFFFFFFFFF
(1544451791.160296) can0 354#0000000000000000
(1544451791.160302) can0 3B7#FFFF7FCFFE40
(1544451791.160306) can0 217#FEFFF8000000C0
(1544451791.160315) can0 2C6#FFFFFFFFFFF0
(1544451791.160321) can0 1F6#1E2081FF80FEFFFE
(1544451791.160326) can0 186#5D302E52E5FFF9
(1544451791.160331) can0 18A#2E500006B600
(1544451791.160335) can0 500#0227C7280A
(1544451791.160340) can0 12E#CC7FFC7FE0FFFF00
(1544451791.160345) can0 090#00000000
(1544451791.160350) can0 0C6#7FA280007FFFA040
(1544451791.160354) can0 29A#00000000000000FF
(1544451791.160359) can0 2B7#00E0FFFE01
(1544451791.160363) can0 646#03FFFFFFFFFFFFF0
(1544451791.160368) can0 1F6#1E2081FF80FEFFFE
(1544451791.160372) can0 186#5D522E52E5FFF9
(1544451791.160376) can0 18A#2E500006B600
(1544451791.160380) can0 2BC#94B706B9DD7A574A
(1544451791.160384) can0 350#C716B99414986485
(1544451791.160387) can0 55D#00D5600092800000
(1544451791.160392) can0 12E#CC7FFC7FE0FFFF00
(1544451791.160397) can0 090#00000000
(1544451791.160401) can0 0C6#7FA280007FFFA23E
(1544451791.160405) can0 242#5280FFFFFFFFFD
(1544451791.183787) can0 29C#0000FFFFFFFFFFFF
(1544451791.183817) can0 352#5C000000
(1544451791.183822) can0 217#FEFFF8000000C0
(1544451791.183827) can0 2C6#FFFFFFFFFFF0
(1544451791.183831) can0 1F6#1E2081FF80FEFFFE
(1544451791.183836) can0 186#5D322E52E5FFF9
(1544451791.183842) can0 18A#2E500006B600
(1544451791.183847) can0 12E#CC7FFC7FD0FFFF00
(1544451791.183852) can0 090#00000000
(1544451791.183857) can0 0C6#7FA280007FFFA43C
(1544451791.183861) can0 29A#00000000000001FE
(1544451791.183865) can0 2B7#00E0FFFE01
(1544451791.183870) can0 1F6#1E2081FF80FEFFFE
(1544451791.183874) can0 186#5D522E52E5FFF9
(1544451791.183878) can0 18A#2E500006B600
(1544451791.183882) can0 5DE#0008000000000002
(1544451791.183887) can0 12E#CC7FFC7FD0FFFF00
(1544451791.183891) can0 090#00000000
(1544451791.183895) can0 0C6#7FA280007FFFA63A
(1544451791.183899) can0 242#5280FFFFFFFFFD
(1544451791.183902) can0 29C#0000FFFFFFFFFFFF
(1544451791.183906) can0 354#0000000000000000
(1544451791.183910) can0 217#FEFFF8000000C0
(1544451791.183914) can0 2C6#FFFFFFFFFFF0
(1544451791.183918) can0 1F6#1E2081FF80FEFFFE
(1544451791.203682) can0 186#5D302E52E5FFF9
(1544451791.203711) can0 18A#2E500006B600
(1544451791.203716) can0 673#0018FF49FFFF00
(1544451791.203720) can0 12E#CC7FFC7FD0FFFF00
(1544451791.203725) can0 090#00000000
(1544451791.203730) can0 0C6#7FA280007FFFA838
(1544451791.203736) can0 29A#00000000000002FD
(1544451791.203740) can0 2B7#00E0FFFE01
(1544451791.203745) can0 5D7#000003274250D2
(1544451791.203750) can0 1F6#1E2081FF80FEFFFE
(1544451791.203754) can0 186#5D622E52E5FFF9
(1544451791.203758) can0 18A#2E500006B600
(1544451791.203763) can0 66A#2FFF600101C01F00
(1544451791.203767) can0 511#00F14437372E73
(1544451791.203771) can0 5DA#FF7100004EFFFF00
(1544451791.203776) can0 648#FFFFF07FFE7FFE00
(1544451791.203780) can0 65C#FEFF
(1544451791.203784) can0 657#0000
(1544451791.203788) can0 12E#CC7FFC7FD0FFFF00
(1544451791.203792) can0 090#00000000
(1544451791.203796) can0 0C6#7FA280007FFFAA36
(1544451791.203800) can0 242#5280FFFFFFFFFD
(1544451791.203803) can0 29C#0000FFFFFFFFFFFF
(1544451791.203807) can0 352#5C000000
(1544451791.203811) can0 653#00400800
(1544451791.203815) can0 217#FEFFF8000000C0
(1544451791.203819) can0 2C6#FFFFFFFFFFF0
(1544451791.224267) can0 1F6#1E2081FF80FEFFFE
(1544451791.224297) can0 186#5D322E52E5FFF9
(1544451791.224301) can0 18A#2E500006B600
(1544451791.224305) can0 4AC#80
(1544451791.224311) can0 45C#00000000
(1544451791.224315) can0 575#2B74
(1544451791.224319) can0 5DF#0084
(1544451791.224324) can0 12E#CD7FFC7FD0FFFF00
(1544451791.224328) can0 090#00000000
(1544451791.224333) can0 0C6#7FA280007FFFAC34
(1544451791.224338) can0 29A#00000000000003FC
(1544451791.224342) can0 2B7#00E0FFFE01
(1544451791.224346) can0 666#7D000000
(1544451791.224350) can0 564#C010
(1544451791.224355) can0 1F6#1E2081FF80FEFFFE
(1544451791.224360) can0 186#5D522E52E5FFF9
(1544451791.224364) can0 18A#2E500006B600
(1544451791.224368) can0 552#2B74
(1544451791.224373) can0 12E#CD7FFC7FD0FFFF00
(1544451791.224376) can0 090#00000000
(1544451791.224380) can0 0C6#7FA280007FFFAE32
(1544451791.224384) can0 242#5280FFFFFFFFFD
(1544451791.224388) can0 29C#0000FFFFFFFFFFFF
(1544451791.224392) can0 354#0000000000000000
(1544451791.224396) can0 217#FEFFF8000000C0
(1544451791.224401) can0 2C6#FFFFFFFFFFF0
(1544451791.224405) can0 1F6#1E2081FF80FEFFFE
(1544451791.224409) can0 186#5D302E52E5FFF9
(1544451791.250009) can0 18A#2E500006B600
(1544451791.250039) can0 12E#CD7FFC7FD0FFFF00
(1544451791.250043) can0 090#00000000
(1544451791.250050) can0 0C6#7FA280007FFFB030
(1544451791.250055) can0 29A#00000000000004FB
(1544451791.250060) can0 2B7#00E0FFFE01
(1544451791.250064) can0 4F8#4A1030FFFF03FF00
(1544451791.250069) can0 1F6#1E2081FF80FEFFFE
(1544451791.250074) can0 186#5D522E52E5FFF9
(1544451791.250078) can0 18A#2E500006B600
(1544451791.250083) can0 12E#CD7FFC7FD0FFFF00
(1544451791.250086) can0 090#00000000
(1544451791.250091) can0 0C6#7FA280007FFFB22E
(1544451791.250095) can0 242#5280FFFFFFFFFD
(1544451791.250100) can0 29C#0000FFFFFFFFFFFF
(1544451791.250104) can0 352#5C000000
(1544451791.250108) can0 3B7#FFFF7FCFFE40
(1544451791.250113) can0 217#FEFFF8000000C0
(1544451791.250116) can0 2C6#FFFFFFFFFFF0
(1544451791.250121) can0 1F6#1E2081FF80FEFFFE
(1544451791.250125) can0 186#5D402E52E5FFF9
(1544451791.250128) can0 18A#2E500006B600
(1544451791.250132) can0 500#02813BDEB7
(1544451791.250137) can0 12E#CD7FFD7FE0FFFF00
(1544451791.250141) can0 090#00000000
(1544451791.250145) can0 0C6#7FA280007FFFB42C
(1544451791.273267) can0 29A#00000000000005FA
(1544451791.273296) can0 2B7#00E0FFFE01
(1544451791.273302) can0 1F6#1E2081FF80FEFFFE
(1544451791.273307) can0 186#5D522E52E5FFF9
(1544451791.273311) can0 18A#2E500006B600
(1544451791.273318) can0 2BC#945AD10306B0B8E7
(1544451791.273322) can0 350#C716B99414986485
(1544451791.273326) can0 55D#00D5600092800000
(1544451791.273331) can0 12E#CD7FFD7FE0FFFF00
(1544451791.273335) can0 090#00000000
(1544451791.273340) can0 0C6#7FA280007FFFB62A
(1544451791.273345) can0 242#5280FFFFFFFFFD
(1544451791.273349) can0 29C#0000FFFFFFFFFFFF
(1544451791.273353) can0 354#0000000000000000
(1544451791.273358) can0 217#FEFFF8000000C0
(1544451791.273362) can0 2C6#FFFFFFFFFFF0
(1544451791.273367) can0 1F6#1E2081FF80FEFFFE
(1544451791.273371) can0 186#5D322E52E5FFF9
(1544451791.273375) can0 18A#2E500006B600
(1544451791.273383) can0 12E#CC7FFD7FF0FFFF00
(1544451791.273386) can0 090#00000000
(1544451791.273392) can0 0C6#7FA280007FFFB828
(1544451791.273396) can0 29A#00000000000006F9
(1544451791.273400) can0 2B7#00E0FFFE01
(1544451791.295167) can0 1F6#1E2081FF80FEFFFE
(1544451791.295197) can0 186#5D522E52E5FFF9
(1544451791.295202) can0 18A#2E500006B600
(1544451791.295207) can0 5DE#0008000000000002
(1544451791.295212) can0 12E#CC7FFD7FF0FFFF00
(1544451791.295216) can0 090#00000000
(1544451791.295221) can0 0C6#7FA280007FFFBA26
(1544451791.295227) can0 242#5280FFFFFFFFFD
(1544451791.295231) can0 29C#0000FFFFFFFFFFFF
(1544451791.295236) can0 352#5C000000
(1544451791.295241) can0 217#FEFFF8000000C0
(1544451791.295245) can0 2C6#FFFFFFFFFFF0
(1544451791.295249) can0 1F6#1E2081FF80FEFFFE
(1544451791.295253) can0 186#5D302E52E5FFF9
(1544451791.295257) can0 18A#2E500006B600
(1544451791.295262) can0 673#0018FF49FFFF00
(1544451791.295266) can0 12E#CC7FFC7FE0FFFF00
(1544451791.295271) can0 090#00000000
(1544451791.295275) can0 0C6#7FA280007FFFBC24
(1544451791.295279) can0 29A#00000000000007F8
(1544451791.295283) can0 2B7#00E0FFFE01
(1544451791.295286) can0 5D7#000003274250D2
(1544451791.295290) can0 1F6#1E2081FF80FEFFFE
(1544451791.295294) can0 186#5D542E52E5FFF9
(1544451791.295298) can0 18A#2E500006B600
(1544451791.295302) can0 66A#2FFF600101C01F00
(1544451791.313276) can0 511#00300DF0A23B56
(1544451791.313306) can0 5DA#FF7100004EFFFF00
(1544451791.313311) can0 648#FFFFF07FFE7FFE00
(1544451791.313315) can0 65C#FEFF
(1544451791.313319) can0 657#0000
(1544451791.313326) can0 12E#CC7FFC7FE0FFFF00
(1544451791.313330) can0 090#00000000
(1544451791.313335) can0 0C6#7FA280007FFFBE22
(1544451791.313339) can0 242#5280FFFFFFFFFD
(1544451791.313343) can0 29C#0000FFFFFFFFFFFF
(1544451791.313348) can0 354#0000000000000000
(1544451791.313352) can0 653#00400800
(1544451791.313356) can0 217#FEFFF8000000C0
(1544451791.313360) can0 2C6#FFFFFFFFFFF0
(1544451791.313365) can0 1F6#1E2081FF80FEFFFE
(1544451791.313369) can0 186#5D3E2E52E5FFF9
(1544451791.313374) can0 18A#2E500006B600
(1544451791.313378) can0 4AC#80
(1544451791.313382) can0 45C#00000000
(1544451791.313385) can0 575#0994
(1544451791.313388) can0 5DF#0084
(1544451791.313393) can0 12E#CD7FFC7FD0FFFF00
(1544451791.313396) can0 090#00000000
(1544451791.313400) can0 0C6#7FA280007FFFA040
(1544451791.313405) can0 29A#00000000000008F7
(1544451791.313409) can0 2B7#00E0FFFE01
(1544451791.313413) can0 666#7D000000
(1544451791.313416) can0 564#F9A0
(1544451791.339642) can0 1F6#1E2081FF80FEFFFE
(1544451791.339672) can0 186#5D542E52E5FFF9
(1544451791.339677) can0 18A#2E500006B600
(1544451791.339682) can0 552#0994
(1544451791.339687) can0 12E#CD7FFC7FD0FFFF00
(1544451791.339691) can0 090#00000000
(1544451791.339696) can0 0C6#7FA280007FFFA23E
(1544451791.339701) can0 242#5280FFFFFFFFFD
(1544451791.339705) can0 29C#0000FFFFFFFFFFFF
(1544451791.339709) can0 352#5C000000
(1544451791.339714) can0 217#FEFFF8000000C0
(1544451791.339718) can0 2C6#FFFFFFFFFFF0
(1544451791.339723) can0 1F6#1E2081FF80FEFFFE
(1544451791.339727) can0 186#5D302E52E5FFF9
(1544451791.339736) can0 18A#2E500006B600
(1544451791.339741) can0 12E#CD7FFC7FD0FFFF00
(1544451791.339745) can0 090#00000000
(1544451791.339750) can0 0C6#7FA280007FFFA43C
(1544451791.339754) can0 29A#00000000000009F6
(1544451791.339757) can0 2B7#00E0FFFE01
(1544451791.339761) can0 4F8#4A1030FFFF03FF00
(1544451791.339765) can0 1F6#1E2081FF80FEFFFE
(1544451791.339769) can0 186#5D542E52E5FFF9
(1544451791.339774) can0 18A#2E500006B600
(1544451791.339778) can0 12E#CD7FFC7FD0FFFF00
(1544451791.339781) can0 090#00000000
(1544451791.360184) can0 0C6#7FA280007FFFA63A
(1544451791.360214) can0 242#5280FFFFFFFFFD
(1544451791.360219) can0 29C#0000FFFFFFFFFFFF
(1544451791.360224) can0 354#0000000000000000
(1544451791.360229) can0 3B7#FFFF7FCFFE40
(1544451791.360235) can0 217#FEFFF8000000C0
(1544451791.360240) can0 2C6#FFFFFFFFFFF0
(1544451791.360244) can0 1F6#1E2081FF80FEFFFE
(1544451791.360249) can0 186#5D302E52E5FFF9
(1544451791.360253) can0 18A#2E500006B600
(1544451791.360257) can0 500#0200999499
(1544451791.360262) can0 12E#CC7FFC7FE0FFFF00
(1544451791.360266) can0 090#00000000
(1544451791.360272) can0 0C6#7FA280007FFFA838
(1544451791.360276) can0 29A#0000000000000AF5
(1544451791.360280) can0 2B7#00E0FFFE01
(1544451791.360285) can0 1F6#1E2081FF80FEFFFE
(1544451791.360289) can0 186#5D622E52E5FFF9
(1544451791.360292) can0 18A#2E500006B600
(1544451791.360296) can0 2BC#94B8826160249042
(1544451791.360300) can0 350#C716B99414986485
(1544451791.360304) can0 55D#00D5600092800000
(1544451791.360309) can0 12E#CC7FFC7FE0FFFF00
(1544451791.360313) can0 090#00000000
(1544451791.360317) can0 0C6#7FA280007FFFAA36
(1544451791.383920) can0 242#5280FFFFFFFFFD
(1544451791.383949) can0 29C#0000FFFFFFFFFFFF
(1544451791.383954) can0 352#5C000000
(1544451791.383959) can0 1F6#1E2081FF80FEFFFE
(1544451791.383963) can0 186#5D302E52E5FFF9
(1544451791.383968) can0 18A#2E500006B600
(1544451791.383974) can0 217#FEFFF8000000C0
(1544451791.383979) can0 2C6#FFFFFFFFFFF0
(1544451791.383984) can0 12E#CC7FFD7FF0FFFF00
(1544451791.383988) can0 090#00000000
(1544451791.383993) can0 0C6#7FA280007FFFAC34
(1544451791.383997) can0 29A#0000000000000BF4
(1544451791.384002) can0 2B7#00E0FFFE01
(1544451791.384006) can0 1F6#1E2081FF80FEFFFE
(1544451791.384011) can0 186#5D542E52E5FFF9
(1544451791.384014) can0 18A#2E500006B600
(1544451791.384019) can0 5DE#0008000000000002
(1544451791.384024) can0 12E#CC7FFD7FF0FFFF00
(1544451791.384028) can0 090#00000000
(1544451791.384032) can0 0C6#7FA280007FFFAE32
(1544451791.384036) can0 242#5280FFFFFFFFFD
(1544451791.384040) can0 29C#0000FFFFFFFFFFFF
(1544451791.384044) can0 354#0000000000000000
(1544451791.384047) can0 1F6#1E2081FF80FEFFFE
(1544451791.384051) can0 186#5D302E52E5FFF9
(1544451791.384055) can0 18A#2E500006B600
(1544451791.403778) can0 217#FEFFF8000000C0
(1544451791.403807) can0 2C6#FFFFFFFFFFF0
(1544451791.403813) can0 673#0018FF49FFFF00
(1544451791.403818) can0 12E#CC7FFC7FE0FFFF00
(1544451791.403822) can0 090#00000000
(1544451791.403829) can0 0C6#7FA280007FFFB030
(1544451791.403833) can0 29A#0000000000000CF3
(1544451791.403837) can0 2B7#00E0FFFE01
(1544451791.403842) can0 5D7#000003274250D2
(1544451791.403846) can0 1F6#1E2081FF80FEFFFE
(1544451791.403855) can0 186#5D522E52E5FFF9
(1544451791.403860) can0 18A#2E500006B600
(1544451791.403864) can0 66A#2FFF600101C01F00
(1544451791.403869) can0 511#006FD6A90D4839
(1544451791.403874) can0 5DA#FF7100004EFFFF00
(1544451791.403879) can0 648#FFFFF07FFE7FFE00
(1544451791.403882) can0 65C#FEFF
(1544451791.403886) can0 657#0000
(1544451791.403890) can0 12E#CC7FFC7FE0FFFF00
(1544451791.403893) can0 090#00000000
(1544451791.403897) can0 0C6#7FA280007FFFB22E
(1544451791.403901) can0 242#5280FFFFFFFFFD
(1544451791.403906) can0 29C#0000FFFFFFFFFFFF
(1544451791.403910) can0 352#5C000000
(1544451791.403913) can0 653#00400800
(1544451791.403917) can0 1F6#1E2081FF80FEFFFE
(1544451791.425134) can0 186#5D302E52E5FFF9
(1544451791.425163) can0 18A#2E500006B600
(1544451791.425168) can0 217#FEFFF8000000C0
(1544451791.425173) can0 2C6#FFFFFFFFFFF0
(1544451791.425177) can0 4AC#80
(1544451791.425183) can0 45C#00000000
(1544451791.425187) can0 575#1ED4
(1544451791.425191) can0 5DF#0084
(1544451791.425195) can0 12E#CC7FFC7FE0FFFF00
(1544451791.425199) can0 090#00000000
(1544451791.425204) can0 0C6#7FA280007FFFB42C
(1544451791.425209) can0 29A#0000000000000DF2
(1544451791.425213) can0 2B7#00E0FFFE01
(1544451791.425217) can0 666#7D000000
(1544451791.425221) can0 564#D310
(1544451791.425226) can0 1F6#1E2081FF80FEFFFE
(1544451791.425230) can0 186#5D622E52E5FFF9
(1544451791.425234) can0 18A#2E500006B600
(1544451791.425238) can0 552#1ED4
(1544451791.425243) can0 12E#CC7FFC7FE0FFFF00
(1544451791.425246) can0 090#00000000
(1544451791.425250) can0 0C6#7FA280007FFFB62A
(1544451791.425254) can0 242#5280FFFFFFFFFD
(1544451791.425258) can0 29C#0000FFFFFFFFFFFF
(1544451791.425261) can0 354#0000000000000000
(1544451791.425266) can0 217#FEFFF8000000C0
(1544451791.425270) can0 2C6#FFFFFFFFFFF0
(1544451791.425274) can0 1F6#1E2081FF80FEFFFE
(1544451791.449661) can0 186#5D522E52E5FFF9
(1544451791.449690) can0 18A#2E500006B600
(1544451791.449695) can0 12E#CD7FFC7FE0FFFF00
(1544451791.449706) can0 090#00000000
(1544451791.449712) can0 0C6#7FA280007FFFB828
(1544451791.449716) can0 29A#0000000000000EF1
(1544451791.449722) can0 2B7#00E0FFFE01
(1544451791.449726) can0 4F8#4A1030FFFF03FF00
(1544451791.449730) can0 1F6#1E2081FF80FEFFFE
(1544451791.449735) can0 186#5D522E52E5FFF9
(1544451791.449739) can0 18A#2E500006B600
(1544451791.449743) can0 12E#CD7FFC7FE0FFFF00
(1544451791.449747) can0 090#00000000
(1544451791.449751) can0 0C6#7FA280007FFFBA26
(1544451791.449756) can0 242#5280FFFFFFFFFD
(1544451791.449761) can0 29C#0000FFFFFFFFFFFF
(1544451791.449765) can0 352#5C000000
(1544451791.449769) can0 3B7#FFFF7FCFFE40
(1544451791.449773) can0 217#FEFFF8000000C0
(1544451791.449776) can0 2C6#FFFFFFFFFFF0
(1544451791.449780) can0 1F6#1E2081FF80FEFFFE
(1544451791.449784) can0 186#5D542E52E5FFF9
(1544451791.449787) can0 18A#2E500006B600
(1544451791.449792) can0 500#025E61F5ED
(1544451791.449796) can0 12E#CD7FFC7FE0FFFF00
(1544451791.449800) can0 090#00000000
(1544451791.474715) can0 0C6#7FA280007FFFBC24
(1544451791.474744) can0 29A#0000000000000FF0
(1544451791.474749) can0 2B7#00E0FFFE01
(1544451791.474758) can0 1F6#1E2081FF80FEFFFE
(1544451791.474763) can0 186#5D542E52E5FFF9
(1544451791.474769) can0 18A#2E500006B600
(1544451791.474774) can0 2BC#94FB7E858672110F
(1544451791.474778) can0 350#C716B99414986485
(1544451791.474782) can0 55D#00D5600092800000
(1544451791.474787) can0 12E#CD7FFC7FE0FFFF00
(1544451791.474792) can0 090#00000000
(1544451791.474797) can0 0C6#7FA280007FFFBE22
(1544451791.474801) can0 242#5280FFFFFFFFFD
(1544451791.474805) can0 29C#0000FFFFFFFFFFFF
(1544451791.474810) can0 354#0000000000000000
(1544451791.474814) can0 217#FEFFF8000000C0
(1544451791.474818) can0 2C6#FFFFFFFFFFF0
(1544451791.474822) can0 1F6#1E2081FF80FEFFFE
(1544451791.474826) can0 186#5D302E52E5FFF9
(1544451791.474829) can0 18A#2E500006B600
(1544451791.474833) can0 12E#CC7FFE7FE0FFFF00
(1544451791.474837) can0 090#00000000
(1544451791.474843) can0 0C6#7FA280007FFFA040
(1544451791.474847) can0 29A#00000000000000FF
(1544451791.474851) can0 2B7#00E0FFFE01
(1544451791.495261) can0 1F6#1E2081FF80FEFFFE
(1544451791.495290) can0 186#5D602E52E5FFF9
(1544451791.495294) can0 18A#2E500006B600
(1544451791.495299) can0 5DE#0008000000000002
(1544451791.495304) can0 12E#CC7FFE7FE0FFFF00
(1544451791.495308) can0 090#00000000
(1544451791.495315) can0 0C6#7FA280007FFFA23E
(1544451791.495319) can0 242#5280FFFFFFFFFD
(1544451791.495324) can0 29C#0000FFFFFFFFFFFF
(1544451791.495328) can0 352#5C000000
(1544451791.495333) can0 217#FEFFF8000000C0
(1544451791.495337) can0 2C6#FFFFFFFFFFF0
(1544451791.495341) can0 1F6#1E2081FF80FEFFFE
(1544451791.495345) can0 186#5D322E52E5FFF9
(1544451791.495350) can0 18A#2E500006B600
(1544451791.495354) can0 673#0018FF49FFFF00
(1544451791.495359) can0 12E#CC7FFE7FE0FFFF00
(1544451791.495363) can0 090#00000000
(1544451791.495367) can0 0C6#7FA280007FFFA43C
(1544451791.495371) can0 29A#00000000000001FE
(1544451791.495375) can0 2B7#00E0FFFE01
(1544451791.495379) can0 5D7#000003274250D2
(1544451791.495383) can0 1F6#1E2081FF80FEFFFE
(1544451791.495387) can0 186#5D522E52E5FFF9
(1544451791.495391) can0 18A#2E500006B600
(1544451791.514898) can0 5DA#FF7100004EFFFF00
(1544451791.514927) can0 511#00AE9F6278551C
(1544451791.514933) can0 648#FFFFF07FFE7FFE00
(1544451791.514937) can0 657#0000
(1544451791.514941) can0 65C#FEFF
(1544451791.514946) can0 66A#2FFF600101C01F00
(1544451791.514952) can0 12E#CC7FFE7FE0FFFF00
(1544451791.514957) can0 090#00000000
(1544451791.514961) can0 0C6#7FA280007FFFA63A
(1544451791.514966) can0 242#5280FFFFFFFFFD
(1544451791.514971) can0 29C#0000FFFFFFFFFFFF
(1544451791.514975) can0 354#0000000000000000
(1544451791.514979) can0 653#00400800
(1544451791.514983) can0 217#FEFFF8000000C0
(1544451791.514987) can0 2C6#FFFFFFFFFFF0
(1544451791.514992) can0 1F6#1E2081FF80FEFFFE
(1544451791.514996) can0 186#5D322E52E5FFF9
(1544451791.515000) can0 18A#2E500006B600
(1544451791.515004) can0 4AC#80
(1544451791.515007) can0 45C#00000000
(1544451791.515011) can0 575#24F4
(1544451791.515014) can0 5DF#0084
(1544451791.515018) can0 12E#CD7FFD7FE0FFFF00
(1544451791.515022) can0 090#00000000
(1544451791.515026) can0 0C6#7FA280007FFFA838
(1544451791.515031) can0 29A#00000000000002FD
(1544451791.515039) can0 2B7#00E0FFFE01
(1544451791.515043) can0 666#7D000000
(1544451791.515047) can0 564#CA10
(1544451791.539589) can0 1F6#1E2081FF80FEFFFE
(1544451791.539619) can0 186#5D522E52E5FFF9
(1544451791.539625) can0 18A#2E500006B600
(1544451791.539629) can0 552#24F4
(1544451791.539634) can0 12E#CD7FFD7FE0FFFF00
(1544451791.539638) can0 090#00000000
(1544451791.539643) can0 0C6#7FA280007FFFAA36
(1544451791.539648) can0 242#5280FFFFFFFFFD
(1544451791.539652) can0 29C#0000FFFFFFFFFFFF
(1544451791.539656) can0 352#5C000000
(1544451791.539660) can0 217#FEFFF8000000C0
(1544451791.539665) can0 2C6#FFFFFFFFFFF0
(1544451791.539669) can0 1F6#1E2081FF80FEFFFE
(1544451791.539674) can0 186#5D3E2E52E5FFF9
(1544451791.539678) can0 18A#2E500006B600
(1544451791.539683) can0 12E#CD7FFE7FE0FFFF00
(1544451791.539687) can0 090#00000000
(1544451791.539693) can0 0C6#7FA280007FFFAC34
(1544451791.539697) can0 29A#00000000000003FC
(1544451791.539700) can0 2B7#00E0FFFE01
(1544451791.539704) can0 4F8#4A1030FFFF03FF00
(1544451791.539708) can0 1F6#1E2081FF80FEFFFE
(1544451791.539713) can0 186#5D542E52E5FFF9
(1544451791.539717) can0 18A#2E500006B600
(1544451791.539721) can0 12E#CD7FFE7FE0FFFF00
(1544451791.539724) can0 090#00000000
(1544451791.560000) can0 0C6#7FA280007FFFAE32
(1544451791.560030) can0 242#5280FFFFFFFFFD
(1544451791.560035) can0 29C#0000FFFFFFFFFFFF
(1544451791.560040) can0 354#0000000000000000
(1544451791.560044) can0 3B7#FFFF7FCFFE40
(1544451791.560051) can0 217#FEFFF8000000C0
(1544451791.560055) can0 2C6#FFFFFFFFFFF0
(1544451791.560060) can0 1F6#1E2081FF80FEFFFE
(1544451791.560065) can0 186#5D302E52E5FFF9
(1544451791.560069) can0 18A#2E500006B600
(1544451791.560073) can0 500#0224FBA64F
(1544451791.560078) can0 12E#CD7FFD7FE0FFFF00
(1544451791.560082) can0 090#00000000
(1544451791.560087) can0 0C6#7FA280007FFFB030
(1544451791.560091) can0 29A#00000000000004FB
(1544451791.560095) can0 2B7#00E0FFFE01
(1544451791.560100) can0 1F6#1E2081FF80FEFFFE
(1544451791.560105) can0 186#5D542E52E5FFF9
(1544451791.560109) can0 18A#2E500006B600
(1544451791.560113) can0 2BC#94B07350819126ED
(1544451791.560117) can0 350#C716B99414986485
(1544451791.560122) can0 55D#00D5600092800000
(1544451791.560126) can0 12E#CD7FFD7FE0FFFF00
(1544451791.560129) can0 090#00000000
(1544451791.560133) can0 0C6#7FA280007FFFB22E
(1544451791.583506) can0 242#5280FFFFFFFFFD
(1544451791.583535) can0 29C#0000FFFFFFFFFFFF
(1544451791.583540) can0 352#5C000000
(1544451791.583545) can0 217#FEFFF8000000C0
(1544451791.583549) can0 2C6#FFFFFFFFFFF0
(1544451791.583554) can0 1F6#1E2081FF80FEFFFE
(1544451791.583560) can0 186#5D302E52E5FFF9
(1544451791.583565) can0 18A#2E500006B600
(1544451791.583569) can0 12E#CD7FFC7FE0FFFF00
(1544451791.583573) can0 090#00000000
(1544451791.583578) can0 0C6#7FA280007FFFB42C
(1544451791.583583) can0 29A#00000000000005FA
(1544451791.583587) can0 2B7#00E0FFFE01
(1544451791.583591) can0 1F6#1E2081FF80FEFFFE
(1544451791.583595) can0 186#5D522E52E5FFF9
(1544451791.583600) can0 18A#2E500006B600
(1544451791.583604) can0 5DE#0008000000000002
(1544451791.583610) can0 12E#CD7FFC7FE0FFFF00
(1544451791.583614) can0 090#00000000
(1544451791.583622) can0 0C6#7FA280007FFFB62A
(1544451791.583626) can0 242#5280FFFFFFFFFD
(1544451791.583630) can0 29C#0000FFFFFFFFFFFF
(1544451791.583634) can0 354#0000000000000000
(1544451791.583639) can0 217#FEFFF8000000C0
(1544451791.583642) can0 2C6#FFFFFFFFFFF0
(1544451791.602724) can0 1F6#1E2081FF80FEFFFE
(1544451791.602753) can0 186#5D402E52E5FFF9
(1544451791.602758) can0 18A#2E500006B600
(1544451791.602762) can0 673#0018FF49FFFF00
(1544451791.602767) can0 12E#CD7FFC7FE0FFFF00
(1544451791.602772) can0 090#00000000
(1544451791.602778) can0 0C6#7FA280007FFFB828
(1544451791.602782) can0 29A#00000000000006F9
(1544451791.602787) can0 2B7#00E0FFFE01
(1544451791.602791) can0 5D7#000003274250D2
(1544451791.602796) can0 1F6#1E2081FF80FEFFFE
(1544451791.602800) can0 186#5D542E52E5FFF9
(1544451791.602804) can0 18A#2E500006B600
(1544451791.602809) can0 66A#2FFF600101C01F00
(1544451791.602814) can0 511#00ED681BE362FF
(1544451791.602818) can0 5DA#FF7100004EFFFF00
(1544451791.602823) can0 648#FFFFF07FFE7FFE00
(1544451791.602827) can0 657#0000
(1544451791.602831) can0 65C#FEFF
(1544451791.602835) can0 12E#CD7FFC7FE0FFFF00
(1544451791.602839) can0 090#00000000
(1544451791.602842) can0 0C6#7FA280007FFFBA26
(1544451791.602846) can0 242#5280FFFFFFFFFD
(1544451791.602851) can0 29C#0000FFFFFFFFFFFF
(1544451791.602855) can0 352#5C000000
(1544451791.602859) can0 653#00400800
(1544451791.623419) can0 217#FEFFF8000000C0
(1544451791.623450) can0 2C6#FFFFFFFFFFF0
(1544451791.623455) can0 1F6#1E2081FF80FEFFFE
(1544451791.623460) can0 186#5D302E52E5FFF9
(1544451791.623464) can0 18A#2E500006B600
(1544451791.623470) can0 4AC#80
(1544451791.623475) can0 45C#00000000
(1544451791.623478) can0 575#2824
(1544451791.623482) can0 5DF#0084
(1544451791.623487) can0 12E#CD7FFC7FE0FFFF00
(1544451791.623492) can0 090#00000000
(1544451791.623496) can0 0C6#7FA280007FFFBC24
(1544451791.623501) can0 29A#00000000000007F8
(1544451791.623505) can0 2B7#00E0FFFE01
(1544451791.623509) can0 666#7D000000
(1544451791.623513) can0 564#F820
(1544451791.623518) can0 1F6#1E2081FF80FEFFFE
(1544451791.623523) can0 186#5D4E2E52E5FFF9
(1544451791.623526) can0 18A#2E500006B600
(1544451791.623529) can0 552#2824
(1544451791.623533) can0 12E#CD7FFC7FE0FFFF00
(1544451791.623537) can0 090#00000000
(1544451791.623540) can0 0C6#7FA280007FFFBE22
(1544451791.623545) can0 242#5280FFFFFFFFFD
(1544451791.623549) can0 29C#0000FFFFFFFFFFFF
(1544451791.623553) can0 354#0000000000000000
(1544451791.623557) can0 217#FEFFF8000000C0
(1544451791.623561) can0 2C6#FFFFFFFFFFF0
(1544451791.649546) can0 1F6#1E2081FF80FEFFFE
(1544451791.649576) can0 186#5D322E52E5FFF9
(1544451791.649581) can0 18A#2E500006B600
(1544451791.649588) can0 12E#CC7FFE7FE0FFFF00
(1544451791.649593) can0 090#00000000
(1544451791.649598) can0 0C6#7FA280007FFFA040
(1544451791.649602) can0 29A#00000000000008F7
(1544451791.649607) can0 2B7#00E0FFFE01
(1544451791.649611) can0 4F8#4A1030FFFF03FF00
(1544451791.649616) can0 1F6#1E2081FF80FEFFFE
(1544451791.649620) can0 186#5D642E52E5FFF9
(1544451791.649624) can0 18A#2E500006B600
(1544451791.649629) can0 12E#CC7FFE7FE0FFFF00
(1544451791.649636) can0 090#00000000
(1544451791.649641) can0 0C6#7FA2801E7FFFA220
(1544451791.649646) can0 242#5280FFFFFFFFFD
(1544451791.649650) can0 29C#0000FFFFFFFFFFFF
(1544451791.649654) can0 352#5C000000
(1544451791.649658) can0 3B7#FFFF7FCFFE40
(1544451791.649662) can0 217#FEFFF8000000C0
(1544451791.649665) can0 2C6#FFFFFFFFFFF0
(1544451791.649669) can0 1F6#1E2081FF80FEFFFE
(1544451791.649673) can0 186#5D302E52E5FFF9
(1544451791.649678) can0 18A#2E500006B600
(1544451791.649682) can0 500#0230BB8A82
(1544451791.649685) can0 12E#CC7FFC7FE0FFFF00
(1544451791.669744) can0 090#00000000
(1544451791.669773) can0 0C6#7FA280007FFFA43C
(1544451791.669778) can0 29A#00000000000009F6
(1544451791.669783) can0 2B7#00E0FFFE01
(1544451791.669787) can0 646#03FFFFFFFFFFFFF0
(1544451791.669794) can0 1F6#1E2081FF80FEFFFE
(1544451791.669799) can0 186#5D522E52E5FFF9
(1544451791.669803) can0 18A#2E500006B600
(1544451791.669808) can0 2BC#94820564229CCF6B
(1544451791.669812) can0 350#C716B99414986485
(1544451791.669816) can0 55D#00D5600092800000
(1544451791.669821) can0 12E#CC7FFC7FE0FFFF00
(1544451791.669825) can0 090#00000000
(1544451791.669829) can0 0C6#7FA280007FFFA63A
(1544451791.669833) can0 242#5280FFFFFFFFFD
(1544451791.669838) can0 29C#0000FFFFFFFFFFFF
(1544451791.669842) can0 354#0000000000000000
(1544451791.669847) can0 217#FEFFF8000000C0
(1544451791.669851) can0 2C6#FFFFFFFFFFF0
(1544451791.669855) can0 1F6#1E2081FF80FEFFFE
(1544451791.669859) can0 186#5D302E52E5FFF9
(1544451791.669862) can0 18A#2E500006B600
(1544451791.669867) can0 12E#CD7FFC7FE0FFFF00
(1544451791.669871) can0 090#00000000
(1544451791.669875) can0 0C6#7FA280007FFFA838
(1544451791.693518) can0 29A#0000000000000AF5
(1544451791.693547) can0 2B7#00E0FFFE01
(1544451791.693552) can0 1F6#1E2081FF80FEFFFE
(1544451791.693557) can0 186#5D542E52E5FFF9
(1544451791.693562) can0 18A#2E500006B600
(1544451791.693566) can0 5DE#0008000000000002
(1544451791.693573) can0 12E#CD7FFC7FE0FFFF00
(1544451791.693577) can0 090#00000000
(1544451791.693582) can0 0C6#7FA280007FFFAA36
(1544451791.693586) can0 242#5280FFFFFFFFFD
(1544451791.693591) can0 29C#0000FFFFFFFFFFFF
(1544451791.693595) can0 352#5C000000
(1544451791.693600) can0 217#FEFFF8000000C0
(1544451791.693604) can0 2C6#FFFFFFFFFFF0
(1544451791.693608) can0 1F6#1E2081FF80FEFFFE
(1544451791.693612) can0 186#5D2E2E52E5FFF9
(1544451791.693616) can0 18A#2E500006B600
(1544451791.693621) can0 673#0018FF49FFFF00
(1544451791.693626) can0 12E#CC7FFC7FE0FFFF00
(1544451791.693630) can0 090#00000000
(1544451791.693634) can0 0C6#7FA280007FFFAC34
(1544451791.693638) can0 29A#0000000000000BF4
(1544451791.693642) can0 2B7#00E0FFFE01
(1544451791.693646) can0 5D7#000003274250D2
(1544451791.693650) can0 1F6#1E2081FF80FEFFFE
(1544451791.710233) can0 186#5D622E52E5FFF9
(1544451791.710269) can0 18A#2E500006B600
(1544451791.710275) can0 66A#2FFF600101C01F00
(1544451791.710279) can0 511#002C31D44E6FE2
(1544451791.710285) can0 5DA#FF7100004EFFFF00
(1544451791.710290) can0 648#FFFFF07FFE7FFE00
(1544451791.710295) can0 657#0000
(1544451791.710299) can0 65C#FEFF
(1544451791.710304) can0 12E#CC7FFC7FE0FFFF00
(1544451791.710308) can0 090#00000000
(1544451791.710318) can0 0C6#7FA280007FFFAE32
(1544451791.710322) can0 242#5280FFFFFFFFFD
(1544451791.710327) can0 29C#0000FFFFFFFFFFFF
(1544451791.710331) can0 354#0000000000000000
(1544451791.710335) can0 653#00400800
(1544451791.710340) can0 217#FEFFF8000000C0
(1544451791.710344) can0 2C6#FFFFFFFFFFF0
(1544451791.710348) can0 1F6#1E2081FF80FEFFFE
(1544451791.710352) can0 186#5D322E52E5FFF9
(1544451791.710355) can0 18A#2E500006B600
(1544451791.710359) can0 4AC#80
(1544451791.710363) can0 45C#00000000
(1544451791.710366) can0 575#02C4
(1544451791.710370) can0 5DF#0084
(1544451791.710374) can0 12E#CC7FFC7FE0FFFF00
(1544451791.710378) can0 090#00000000
(1544451791.710382) can0 0C6#7FA280007FFFB030
(1544451791.710385) can0 29A#0000000000000CF3
(1544451791.739309) can0 2B7#00E0FFFE01
(1544451791.739338) can0 666#7D000000
(1544451791.739342) can0 564#DD60
(1544451791.739349) can0 1F6#1E2081FF80FEFFFE
(1544451791.739353) can0 186#5D542E52E5FFF9
(1544451791.739358) can0 18A#2E500006B600
(1544451791.739362) can0 552#02C4
(1544451791.739367) can0 12E#CC7FFC7FE0FFFF00
(1544451791.739371) can0 090#00000000
(1544451791.739376) can0 0C6#7FA280007FFFB22E
(1544451791.739381) can0 242#5280FFFFFFFFFD
(1544451791.739385) can0 29C#0000FFFFFFFFFFFF
(1544451791.739389) can0 352#5C000000
(1544451791.739393) can0 217#FEFFF8000000C0
(1544451791.739397) can0 2C6#FFFFFFFFFFF0
(1544451791.739402) can0 1F6#1E2081FF80FEFFFE
(1544451791.739407) can0 186#5D302E52E5FFF9
(1544451791.739411) can0 18A#2E500006B600
(1544451791.739415) can0 12E#CB7FFC7FE0FFFF00
(1544451791.739419) can0 090#00000000
(1544451791.739423) can0 0C6#7FA280007FFFB42C
(1544451791.739426) can0 29A#0000000000000DF2
(1544451791.739430) can0 2B7#00E0FFFE01
(1544451791.739434) can0 4F8#4A1030FFFF03FF00
(1544451791.739439) can0 1F6#1E2081FF80FEFFFE
(1544451791.739443) can0 186#5D522E52E5FFF9
(1544451791.739447) can0 18A#2E500006B600
(1544451791.759208) can0 12E#CB7FFC7FE0FFFF00
(1544451791.759225) can0 090#00000000
(1544451791.759229) can0 0C6#7FA280007FFFB62A
(1544451791.759232) can0 242#5280FFFFFFFFFD
(1544451791.759236) can0 29C#0000FFFFFFFFFFFF
(1544451791.759239) can0 354#0000000000000000
(1544451791.759242) can0 3B7#FFFF7FCFFE40
(1544451791.759246) can0 217#FEFFF8000000C0
(1544451791.759249) can0 2C6#FFFFFFFFFFF0
(1544451791.759252) can0 1F6#1E2081FF80FEFFFE
(1544451791.759255) can0 186#5D402E52E5FFF9
(1544451791.759258) can0 18A#2E500006B600
(1544451791.759261) can0 500#02980AE82C
(1544451791.759265) can0 12E#CC7FFC7FE0FFFF00
(1544451791.759268) can0 090#00000000
(1544451791.759271) can0 0C6#7FA280007FFFB828
(1544451791.759274) can0 29A#0000000000000EF1
(1544451791.759277) can0 2B7#00E0FFFE01
(1544451791.759280) can0 1F6#1E2081FF80FEFFFE
(1544451791.759282) can0 186#5D542E52E5FFF9
(1544451791.759285) can0 18A#2E500006B600
(1544451791.759289) can0 2BC#94DD41D712B87EA4
(1544451791.759294) can0 350#C716B99414986485
(1544451791.759296) can0 55D#00D5600092800000
(1544451791.759299) can0 12E#CC7FFC7FE0FFFF00
(1544451791.782475) can0 090#00000000
(1544451791.782490) can0 0C6#7FA280007FFFBA26
(1544451791.782493) can0 242#5280FFFFFFFFFD
(1544451791.782498) can0 29C#0000FFFFFFFFFFFF
(1544451791.782501) can0 352#5C000000
(1544451791.782504) can0 217#FEFFF8000000C0
(1544451791.782508) can0 2C6#FFFFFFFFFFF0
(1544451791.782511) can0 1F6#1E2081FF80FEFFFE
(1544451791.782514) can0 186#5D2E2E52E5FFF9
(1544451791.782516) can0 18A#2E500006B600
(1544451791.782519) can0 12E#CD7FFC7FD0FFFF00
(1544451791.782522) can0 090#00000000
(1544451791.782524) can0 0C6#7FA280007FFFBC24
(1544451791.782527) can0 29A#0000000000000FF0
(1544451791.782530) can0 2B7#00E0FFFE01
(1544451791.782532) can0 1F6#1E2081FF80FEFFFE
(1544451791.782535) can0 186#5D542E52E5FFF9
(1544451791.782538) can0 18A#2E500006B600
(1544451791.782541) can0 5DE#0008000000000002
(1544451791.782543) can0 12E#CD7FFC7FD0FFFF00
(1544451791.782546) can0 090#00000000
(1544451791.782548) can0 0C6#7FA280007FFFBE22
(1544451791.782552) can0 242#5280FFFFFFFFFD
(1544451791.782555) can0 29C#0000FFFFFFFFFFFF
(1544451791.782557) can0 354#0000000000000000
(1544451791.800271) can0 217#FEFFF8000000C0
(1544451791.800292) can0 2C6#FFFFFFFFFFF0
(1544451791.800295) can0 1F6#1E2081FF80FEFFFE
(1544451791.800298) can0 186#5D302E52E5FFF9
(1544451791.800301) can0 18A#2E500006B600
(1544451791.800304) can0 673#0018FF49FFFF00
(1544451791.800309) can0 12E#CD7FFC7FE0FFFF00
(1544451791.800311) can0 090#00000000
(1544451791.800314) can0 0C6#7FA280007FFFA040
(1544451791.800317) can0 29A#00000000000000FF
(1544451791.800320) can0 2B7#00E0FFFE01
(1544451791.800322) can0 5D7#000003274250D2
(1544451791.800325) can0 1F6#1E2081FF80FEFFFE
(1544451791.800328) can0 186#5D542E52E5FFF9
(1544451791.800330) can0 18A#2E500006B600
(1544451791.800333) can0 66A#2FFF600101C01F00
(1544451791.800336) can0 511#006BFA8DB97CC5
(1544451791.800339) can0 5DA#FF7100004EFFFF00
(1544451791.800342) can0 648#FFFFF07FFE7FFE00
(1544451791.800344) can0 657#0000
(1544451791.800346) can0 65C#FEFF
(1544451791.800349) can0 12E#CD7FFC7FE0FFFF00
(1544451791.800352) can0 090#00000000
(1544451791.800355) can0 0C6#7FA280007FFFA23E
(1544451791.800358) can0 242#5280FFFFFFFFFD
(1544451791.800361) can0 29C#0000FFFFFFFFFFFF
(1544451791.822647) can0 352#5C000000
(1544451791.822672) can0 653#00400800
(1544451791.822676) can0 217#FEFFF8000000C0
(1544451791.822679) can0 2C6#FFFFFFFFFFF0
(1544451791.822682) can0 1F6#1E2081FF80FEFFFE
(1544451791.822687) can0 186#5D3E2E52E5FFF9
(1544451791.822691) can0 18A#2E500006B600
(1544451791.822694) can0 4AC#80
(1544451791.822697) can0 45C#00000000
(1544451791.822700) can0 575#1CE4
(1544451791.822703) can0 5DF#0084
(1544451791.822706) can0 12E#CD7FFC7FE0FFFF00
(1544451791.822709) can0 090#00000000
(1544451791.822713) can0 0C6#7FA280007FFFA43C
(1544451791.822716) can0 29A#00000000000001FE
(1544451791.822719) can0 2B7#00E0FFFE01
(1544451791.822722) can0 666#7D000000
(1544451791.822725) can0 564#E4C0
(1544451791.822729) can0 1F6#1E2081FF80FEFFFE
(1544451791.822732) can0 186#5D542E52E5FFF9
(1544451791.822735) can0 18A#2E500006B600
(1544451791.822738) can0 552#1CE4
(1544451791.822740) can0 12E#CD7FFC7FE0FFFF00
(1544451791.822743) can0 090#00000000
(1544451791.822746) can0 0C6#7FA280007FFFA63A
(1544451791.822753) can0 242#5280FFFFFFFFFD
(1544451791.822756) can0 29C#0000FFFFFFFFFFFF
(1544451791.822760) can0 354#0000000000000000
(1544451791.846043) can0 217#FEFFF8000000C0
(1544451791.846072) can0 2C6#FFFFFFFFFFF0
(1544451791.846077) can0 1F6#1E2081FF80FEFFFE
(1544451791.846083) can0 186#5D302E52E5FFF9
(1544451791.846087) can0 18A#2E500006B600
(1544451791.846091) can0 12E#CC7FFD7FE0FFFF00
(1544451791.846095) can0 090#00000000
(1544451791.846099) can0 0C6#7FA280007FFFA838
(1544451791.846103) can0 29A#00000000000002FD
(1544451791.846106) can0 2B7#00E0FFFE01
(1544451791.846111) can0 4F8#4A1030FFFF03FF00
(1544451791.846114) can0 1F6#1E2081FF80FEFFFE
(1544451791.846118) can0 186#5D542E52E5FFF9
(1544451791.846121) can0 18A#2E500006B600
(1544451791.846125) can0 12E#CC7FFD7FE0FFFF00
(1544451791.846128) can0 090#00000000
(1544451791.846131) can0 0C6#7FA280007FFFAA36
(1544451791.846135) can0 242#5280FFFFFFFFFD
(1544451791.846139) can0 29C#0000FFFFFFFFFFFF
(1544451791.846143) can0 352#5C000000
(1544451791.846147) can0 3B7#FFFF7FCFFE40
(1544451791.846150) can0 217#FEFFF8000000C0
(1544451791.846153) can0 2C6#FFFFFFFFFFF0
(1544451791.846157) can0 1F6#1E2081FF80FEFFFE
(1544451791.846160) can0 186#5D2E2E52E5FFF9
(1544451791.846163) can0 18A#2E500006B600
(1544451791.869656) can0 500#02CC1871CE
(1544451791.869686) can0 12E#CC7FFC7FE0FFFF00
(1544451791.869691) can0 090#00000000
(1544451791.869696) can0 0C6#7FA280007FFFAC34
(1544451791.869700) can0 29A#00000000000003FC
(1544451791.869707) can0 2B7#00E0FFFE01
(1544451791.869712) can0 1F6#1E2081FF80FEFFFE
(1544451791.869717) can0 186#5D642E52E5FFF9
(1544451791.869721) can0 18A#2E500006B600
(1544451791.869726) can0 2BC#9484BF6FAAB343B5
(1544451791.869730) can0 350#C716B99414986485
(1544451791.869735) can0 55D#00D5600092800000
(1544451791.869739) can0 12E#CC7FFC7FE0FFFF00
(1544451791.869743) can0 090#00000000
(1544451791.869747) can0 0C6#7FA280007FFFAE32
(1544451791.869751) can0 242#5280FFFFFFFFFD
(1544451791.869756) can0 29C#0000FFFFFFFFFFFF
(1544451791.869760) can0 354#0000000000000000
(1544451791.869764) can0 217#FEFFF8000000C0
(1544451791.869768) can0 2C6#FFFFFFFFFFF0
(1544451791.869772) can0 1F6#1E2081FF80FEFFFE
(1544451791.869776) can0 186#5D302E52E5FFF9
(1544451791.869780) can0 18A#2E500006B600
(1544451791.869785) can0 12E#CC7FFD7FF0FFFF00
(1544451791.869788) can0 090#00000000
(1544451791.893439) can0 0C6#7FA280007FFFB030
(1544451791.893470) can0 29A#00000000000004FB
(1544451791.893476) can0 2B7#00E0FFFE01
(1544451791.893481) can0 1F6#1E2081FF80FEFFFE
(1544451791.893485) can0 186#5D522E52E5FFF9
(1544451791.893490) can0 18A#2E500006B600
(1544451791.893496) can0 5DE#0008000000000002
(1544451791.893501) can0 12E#CC7FFD7FF0FFFF00
(1544451791.893505) can0 090#00000000
(1544451791.893510) can0 0C6#7FA280007FFFB22E
(1544451791.893514) can0 242#5280FFFFFFFFFD
(1544451791.893519) can0 29C#0000FFFFFFFFFFFF
(1544451791.893523) can0 352#5C000000
(1544451791.893528) can0 217#FEFFF8000000C0
(1544451791.893532) can0 2C6#FFFFFFFFFFF0
(1544451791.893536) can0 1F6#1E2081FF80FEFFFE
(1544451791.893541) can0 186#5D322E52E5FFF9
(1544451791.893545) can0 18A#2E500006B600
(1544451791.893549) can0 673#0018FF49FFFF00
(1544451791.893556) can0 12E#CC7FFD7FE0FFFF00
(1544451791.893560) can0 090#00000000
(1544451791.893564) can0 0C6#7FA280007FFFB42C
(1544451791.893569) can0 29A#00000000000005FA
(1544451791.893572) can0 2B7#00E0FFFE01
(1544451791.893576) can0 5D7#000003274250D2
(1544451791.909789) can0 1F6#1E2081FF80FEFFFE
(1544451791.909819) can0 186#5D522E52E5FFF9
(1544451791.909824) can0 18A#2E500006B600
(1544451791.909828) can0 657#0000
(1544451791.909833) can0 69F#7516451F
(1544451791.909837) can0 66A#2FFF600101C01F00
(1544451791.909843) can0 511#00AAC3462489A8
(1544451791.909848) can0 5DA#FF7100004EFFFF00
(1544451791.909853) can0 648#FFFFF07FFE7FFE00
(1544451791.909857) can0 65C#FEFF
(1544451791.909861) can0 12E#CC7FFD7FE0FFFF00
(1544451791.909865) can0 090#00000000
(1544451791.909870) can0 0C6#7FA280007FFFB62A
(1544451791.909874) can0 242#5280FFFFFFFFFD
(1544451791.909879) can0 29C#0000FFFFFFFFFFFF
(1544451791.909883) can0 354#0000000000000000
(1544451791.909887) can0 653#00400800
(1544451791.909891) can0 217#FEFFF8000000C0
(1544451791.909895) can0 2C6#FFFFFFFFFFF0
(1544451791.909900) can0 1F6#1E2081FF80FEFFFE
(1544451791.909904) can0 186#5D302E52E5FFF9
(1544451791.909907) can0 18A#2E500006B600
(1544451791.909910) can0 4AC#80
(1544451791.909914) can0 45C#00000000
(1544451791.909917) can0 575#00F4
(1544451791.909922) can0 5DF#0084
(1544451791.909926) can0 12E#CC7FFD7FD0FFFF00
(1544451791.909930) can0 090#00000000
(1544451791.933404) can0 0C6#7FA280007FFFB828
(1544451791.933436) can0 29A#00000000000006F9
(1544451791.933441) can0 2B7#00E0FFFE01
(1544451791.933447) can0 666#7D000000
(1544451791.933451) can0 564#FC20
(1544451791.933456) can0 1F6#1E2081FF80FEFFFE
(1544451791.933461) can0 186#5D622E52E5FFF9
(1544451791.933465) can0 18A#2E500006B600
(1544451791.933469) can0 552#00F4
(1544451791.933474) can0 12E#CC7FFD7FD0FFFF00
(1544451791.933478) can0 090#00000000
(1544451791.933482) can0 0C6#7FA280007FFFBA26
(1544451791.933487) can0 242#5280FFFFFFFFFD
(1544451791.933492) can0 29C#0000FFFFFFFFFFFF
(1544451791.933496) can0 352#5C000000
(1544451791.933500) can0 217#FEFFF8000000C0
(1544451791.933504) can0 2C6#FFFFFFFFFFF0
(1544451791.933509) can0 1F6#1E2081FF80FEFFFE
(1544451791.933512) can0 186#5D322E52E5FFF9
(1544451791.933516) can0 18A#2E500006B600
(1544451791.933519) can0 12E#CC7FFC7FD0FFFF00
(1544451791.933523) can0 090#00000000
(1544451791.933528) can0 0C6#7FA280007FFFBC24
(1544451791.933532) can0 29A#00000000000007F8
(1544451791.933536) can0 2B7#00E0FFFE01
(1544451791.933540) can0 4F8#4A1030FFFF03FF00
(1544451791.933544) can0 1F6#1E2081FF80FEFFFE
(1544451791.956632) can0 186#5D4E2E52E5FFF9
(1544451791.956664) can0 18A#2E500006B600
(1544451791.956670) can0 12E#CC7FFC7FD0FFFF00
(1544451791.956674) can0 090#00000000
(1544451791.956681) can0 0C6#7FA280007FFFBE22
(1544451791.956685) can0 242#5280FFFFFFFFFD
(1544451791.956690) can0 29C#0000FFFFFFFFFFFF
(1544451791.956694) can0 354#0000000000000000
(1544451791.956699) can0 3B7#FFFF7FCFFE40
(1544451791.956703) can0 217#FEFFF8000000C0
(1544451791.956707) can0 2C6#FFFFFFFFFFF0
(1544451791.956712) can0 1F6#1E2081FF80FEFFFE
(1544451791.956721) can0 186#5D322E52E5FFF9
(1544451791.956725) can0 18A#2E500006B600
(1544451791.956730) can0 500#02E6F4A40F
(1544451791.956735) can0 12E#CD7FFC7FD0FFFF00
(1544451791.956739) can0 090#00000000
(1544451791.956743) can0 0C6#7FA280007FFFA040
(1544451791.956746) can0 29A#00000000000008F7
(1544451791.956750) can0 2B7#00E0FFFE01
(1544451791.956754) can0 1F6#1E2081FF80FEFFFE
(1544451791.956758) can0 186#5D522E52E5FFF9
(1544451791.956762) can0 18A#2E500006B600
(1544451791.956767) can0 2BC#94F8ABB4675E1A20
(1544451791.956771) can0 350#C716B99414986485
(1544451791.980228) can0 55D#00D5600092800000
(1544451791.980257) can0 12E#CD7FFC7FD0FFFF00
(1544451791.980262) can0 090#00000000
(1544451791.980267) can0 0C6#7FA280007FFFA23E
(1544451791.980272) can0 242#5280FFFFFFFFFD
(1544451791.980276) can0 29C#0000FFFFFFFFFFFF
(1544451791.980282) can0 352#5C000000
(1544451791.980286) can0 217#FEFFF8000000C0
(1544451791.980291) can0 2C6#FFFFFFFFFFF0
(1544451791.980295) can0 1F6#1E2081FF80FEFFFE
(1544451791.980300) can0 186#5D402E52E5FFF9
(1544451791.980304) can0 18A#2E500006B600
(1544451791.980309) can0 12E#CD7FFC7FE0FFFF00
(1544451791.980312) can0 090#00000000
(1544451791.980317) can0 0C6#7FA280007FFFA43C
(1544451791.980321) can0 29A#00000000000009F6
(1544451791.980325) can0 2B7#00E0FFFE01
(1544451791.980331) can0 1F6#1E2081FF80FEFFFE
(1544451791.980334) can0 186#5D542E52E5FFF9
(1544451791.980338) can0 18A#2E500006B600
(1544451791.980341) can0 5DE#0008000000000002
(1544451791.980345) can0 12E#CD7FFC7FE0FFFF00
(1544451791.980349) can0 090#00000000
(1544451791.980353) can0 0C6#7FA280007FFFA63A
(1544451791.980357) can0 242#5280FFFFFFFFFD
(1544451791.999804) can0 29C#0000FFFFFFFFFFFF
(1544451791.999833) can0 354#0000000000000000
(1544451791.999838) can0 217#FEFFF8000000C0
(1544451791.999843) can0 2C6#FFFFFFFFFFF0
(1544451791.999848) can0 1F6#1E2081FF80FEFFFE
(1544451791.999852) can0 186#5D2E2E52E5FFF9
(1544451791.999859) can0 18A#2E500006B600
(1544451791.999863) can0 673#0018FF49FFFF00
(1544451791.999868) can0 12E#CD7FFC7FF0FFFF00
(1544451791.999873) can0 090#00000000
(1544451791.999877) can0 0C6#7FA280007FFFA838
(1544451791.999882) can0 29A#0000000000000AF5
(1544451791.999886) can0 2B7#00E0FFFE01
(1544451791.999890) can0 5D7#000003274250D2
(1544451791.999895) can0 1F6#1E2081FF80FEFFFE
(1544451791.999899) can0 186#5D562E52E5FFF9
(1544451791.999904) can0 18A#2E500006B600
(1544451791.999908) can0 66A#2FFF600101C01F00
(1544451791.999913) can0 511#00E98CFF8F968B
(1544451791.999918) can0 5DA#FF7100004EFFFF00
(1544451791.999922) can0 648#FFFFF07FFE7FFE00
(1544451791.999925) can0 65C#FEFF
(1544451791.999928) can0 657#0000
(1544451791.999933) can0 12E#CD7FFC7FF0FFFF00
(1544451791.999937) can0 090#00000000
(1544451791.999941) can0 0C6#7FA280007FFFAA36
(1544451792.020461) can0 242#5280FFFFFFFFFD
(1544451792.020490) can0 29C#0000FFFFFFFFFFFF
(1544451792.020495) can0 352#5C000000
(1544451792.020498) can0 653#00400800
(1544451792.020503) can0 217#FEFFF8000000C0
(1544451792.020510) can0 2C6#FFFFFFFFFFF0
(1544451792.020515) can0 1F6#1E2081FF80FEFFFE
(1544451792.020520) can0 186#5D2E2E52E5FFF9
(1544451792.020524) can0 18A#2E500006B600
(1544451792.020532) can0 4AC#80
(1544451792.020537) can0 45C#00000000
(1544451792.020540) can0 575#3004
(1544451792.020544) can0 5DF#0084
(1544451792.020549) can0 12E#CD7FFB7FF0FFFF00
(1544451792.020554) can0 090#00000000
(1544451792.020558) can0 0C6#7FA280007FFFAC34
(1544451792.020563) can0 29A#0000000000000BF4
(1544451792.020567) can0 2B7#00E0FFFE01
(1544451792.020571) can0 666#7D000000
(1544451792.020574) can0 564#DD10
(1544451792.020578) can0 1F6#1E2081FF80FEFFFE
(1544451792.020582) can0 186#5D542E52E5FFF9
(1544451792.020586) can0 18A#2E500006B600
(1544451792.020589) can0 552#3004
(1544451792.020593) can0 12E#CD7FFB7FF0FFFF00
(1544451792.020597) can0 090#00000000
(1544451792.020602) can0 0C6#7FA280007FFFAE32
(1544451792.020606) can0 242#5280FFFFFFFFFD
(1544451792.020610) can0 29C#0000FFFFFFFFFFFF
(1544451792.043542) can0 354#0000000000000000
(1544451792.043571) can0 217#FEFFF8000000C0
(1544451792.043578) can0 2C6#FFFFFFFFFFF0
(1544451792.043583) can0 1F6#1E2081FF80FEFFFE
(1544451792.043588) can0 186#5D3E2E52E5FFF9
(1544451792.043593) can0 18A#2E500006B600
(1544451792.043598) can0 12E#CC7FFC7FF0FFFF00
(1544451792.043602) can0 090#00000000
(1544451792.043607) can0 0C6#7FA280007FFFB030
(1544451792.043611) can0 29A#0000000000000CF3
(1544451792.043616) can0 2B7#00E0FFFE01
(1544451792.043620) can0 4F8#4A1030FFFF03FF00
(1544451792.043625) can0 1F6#1E2081FF80FEFFFE
(1544451792.043629) can0 186#5D542E52E5FFF9
(1544451792.043633) can0 18A#2E500006B600
(1544451792.043637) can0 12E#CC7FFC7FF0FFFF00
(1544451792.043641) can0 090#00000000
(1544451792.043645) can0 0C6#7FA280007FFFB22E
(1544451792.043649) can0 242#5280FFFFFFFFFD
(1544451792.043653) can0 29C#0000FFFFFFFFFFFF
(1544451792.043657) can0 352#5C000000
(1544451792.043661) can0 3B7#FFFF7FCFFE40
(1544451792.043665) can0 217#FEFFF8000000C0
(1544451792.043668) can0 2C6#FFFFFFFFFFF0
(1544451792.043673) can0 1F6#1E2081FF80FEFFFE
(1544451792.069276) can0 186#5D302E52E5FFF9
(1544451792.069305) can0 18A#2E500006B600
(1544451792.069310) can0 500#022E850F00
(1544451792.069315) can0 12E#CC7FFE7FF0FFFF00
(1544451792.069319) can0 090#00000000
(1544451792.069324) can0 0C6#7FA280007FFFB42C
(1544451792.069330) can0 29A#0000000000000DF2
(1544451792.069335) can0 2B7#00E0FFFE01
(1544451792.069339) can0 1F6#1E2081FF80FEFFFE
(1544451792.069344) can0 186#5D542E52E5FFF9
(1544451792.069348) can0 18A#2E500006B600
(1544451792.069353) can0 2BC#94BEF2A576E92815
(1544451792.069357) can0 350#C716B99414986485
(1544451792.069361) can0 55D#00D5600092800000
(1544451792.069366) can0 12E#CC7FFE7FF0FFFF00
(1544451792.069370) can0 090#00000000
(1544451792.069375) can0 0C6#7FA280007FFFB62A
(1544451792.069380) can0 242#5280FFFFFFFFFD
(1544451792.069383) can0 29C#0000FFFFFFFFFFFF
(1544451792.069387) can0 354#0000000000000000
(1544451792.069391) can0 217#FEFFF8000000C0
(1544451792.069395) can0 2C6#FFFFFFFFFFF0
(1544451792.069400) can0 1F6#1E2081FF80FEFFFE
(1544451792.069404) can0 186#5D2E2E52E5FFF9
(1544451792.069407) can0 18A#2E500006B600
(1544451792.090146) can0 12E#CC7FFE7FF0FFFF00
(1544451792.090175) can0 090#00000000
(1544451792.090181) can0 0C6#7FA280007FFFB828
(1544451792.090189) can0 29A#0000000000000EF1
(1544451792.090194) can0 2B7#00E0FFFE01
(1544451792.090199) can0 1F6#1E2081FF80FEFFFE
(1544451792.090205) can0 186#5D642E52E5FFF9
(1544451792.090210) can0 18A#2E500006B600
(1544451792.090214) can0 5DE#0008000000000002
(1544451792.090218) can0 12E#CC7FFE7FF0FFFF00
(1544451792.090222) can0 090#00000000
(1544451792.090227) can0 0C6#7FA280007FFFBA26
(1544451792.090231) can0 242#5280FFFFFFFFFD
(1544451792.090235) can0 29C#0000FFFFFFFFFFFF
(1544451792.090240) can0 352#5C000000
(1544451792.090244) can0 217#FEFFF8000000C0
(1544451792.090248) can0 2C6#FFFFFFFFFFF0
(1544451792.090252) can0 1F6#1E2081FF80FEFFFE
(1544451792.090256) can0 186#5D302E52E5FFF9
(1544451792.090260) can0 18A#2E500006B600
(1544451792.090263) can0 673#0018FF49FFFF00
(1544451792.090267) can0 12E#CC7FFC7FF0FFFF00
(1544451792.090271) can0 090#00000000
(1544451792.090276) can0 0C6#7FA280007FFFBC24
(1544451792.090279) can0 29A#0000000000000FF0
(1544451792.090283) can0 2B7#00E0FFFE01
(1544451792.109750) can0 5D7#000003274250D2
(1544451792.109780) can0 1F6#1E2081FF80FEFFFE
(1544451792.109785) can0 186#5D522E52E5FFF9
(1544451792.109790) can0 18A#2E500006B600
(1544451792.109795) can0 66A#2FFF600101C01F00
(1544451792.109801) can0 511#002855B8FAA36E
(1544451792.109806) can0 5DA#FF7100004EFFFF00
(1544451792.109810) can0 648#FFFFF07FFE7FFE00
(1544451792.109814) can0 657#0000
(1544451792.109818) can0 65C#FEFF
(1544451792.109823) can0 12E#CC7FFC7FF0FFFF00
(1544451792.109827) can0 090#00000000
(1544451792.109831) can0 0C6#7FA280007FFFBE22
(1544451792.109836) can0 242#5280FFFFFFFFFD
(1544451792.109841) can0 29C#0000FFFFFFFFFFFF
(1544451792.109845) can0 354#0000000000000000
(1544451792.109848) can0 653#00400800
(1544451792.109853) can0 217#FEFFF8000000C0
(1544451792.109857) can0 2C6#FFFFFFFFFFF0
(1544451792.109861) can0 1F6#1E2081FF80FEFFFE
(1544451792.109865) can0 186#5D322E52E5FFF9
(1544451792.109868) can0 18A#2E500006B600
(1544451792.109872) can0 4AC#80
(1544451792.109877) can0 45C#00000000
(1544451792.109880) can0 575#3904
(1544451792.109883) can0 5DF#0084
(1544451792.109887) can0 12E#CD7FFC7FF0FFFF00
(1544451792.109891) can0 090#00000000
(1544451792.133149) can0 0C6#7FA280007FFFA040
(1544451792.133178) can0 29A#00000000000000FF
(1544451792.133184) can0 2B7#00E0FFFE01
(1544451792.133190) can0 666#7D000000
(1544451792.133194) can0 564#DAE0
(1544451792.133199) can0 1F6#1E2081FF80FEFFFE
(1544451792.133203) can0 186#5D522E52E5FFF9
(1544451792.133208) can0 18A#2E500006B600
(1544451792.133212) can0 552#3904
(1544451792.133216) can0 12E#CD7FFC7FF0FFFF00
(1544451792.133221) can0 090#00000000
(1544451792.133225) can0 0C6#7FA280007FFFA23E
(1544451792.133230) can0 242#5280FFFFFFFFFD
(1544451792.133234) can0 29C#0000FFFFFFFFFFFF
(1544451792.133238) can0 352#5C000000
(1544451792.133242) can0 217#FEFFF8000000C0
(1544451792.133247) can0 2C6#FFFFFFFFFFF0
(1544451792.133251) can0 1F6#1E2081FF80FEFFFE
(1544451792.133255) can0 186#5D302E52E5FFF9
(1544451792.133258) can0 18A#2E500006B600
(1544451792.133262) can0 12E#CD7FFC7FF0FFFF00
(1544451792.133265) can0 090#00000000
(1544451792.133274) can0 0C6#7FA280007FFFA43C
(1544451792.133280) can0 29A#00000000000001FE
(1544451792.133283) can0 2B7#00E0FFFE01
(1544451792.133287) can0 4F8#4A1030FFFF03FF00
(1544451792.155980) can0 1F6#1E2081FF80FEFFFE
(1544451792.156009) can0 186#5D622E52E5FFF9
(1544451792.156014) can0 18A#2E500006B600
(1544451792.156019) can0 12E#CD7FFC7FF0FFFF00
(1544451792.156024) can0 090#00000000
(1544451792.156030) can0 0C6#7FA280007FFFA63A
(1544451792.156034) can0 242#5280FFFFFFFFFD
(1544451792.156039) can0 29C#0000FFFFFFFFFFFF
(1544451792.156043) can0 354#0000000000000000
(1544451792.156047) can0 3B7#FFFF7FCFFE40
(1544451792.156052) can0 217#FEFFF8000000C0
(1544451792.156056) can0 2C6#FFFFFFFFFFF0
(1544451792.156061) can0 1F6#1E2081FF80FEFFFE
(1544451792.156065) can0 186#5D322E52E5FFF9
(1544451792.156069) can0 18A#2E500006B600
(1544451792.156073) can0 500#0282418390
(1544451792.156078) can0 12E#CD7FFC7FF0FFFF00
(1544451792.156082) can0 090#00000000
(1544451792.156087) can0 0C6#7FA280007FFFA838
(1544451792.156090) can0 29A#00000000000002FD
(1544451792.156094) can0 2B7#00E0FFFE01
(1544451792.156098) can0 646#03FFFFFFFFFFFFF0
(1544451792.156103) can0 1F6#1E2081FF80FEFFFE
(1544451792.156107) can0 186#5D522E52E5FFF9
(1544451792.156110) can0 18A#2E500006B600
(1544451792.179846) can0 2BC#940CF55DF87F837D
(1544451792.179876) can0 350#C716B99414986485
(1544451792.179881) can0 55D#00D5600092800000
(1544451792.179886) can0 12E#CD7FFC7FF0FFFF00
(1544451792.179890) can0 090#00000000
(1544451792.179895) can0 0C6#7FA280007FFFAA36
(1544451792.179901) can0 242#5280FFFFFFFFFD
(1544451792.179905) can0 29C#0000FFFFFFFFFFFF
(1544451792.179910) can0 352#5C000000
(1544451792.179914) can0 217#FEFFF8000000C0
(1544451792.179918) can0 2C6#FFFFFFFFFFF0
(1544451792.179923) can0 1F6#1E2081FF80FEFFFE
(1544451792.179927) can0 186#5D302E52E5FFF9
(1544451792.179931) can0 18A#2E500006B600
(1544451792.179936) can0 12E#CC7FFC7FF0FFFF00
(1544451792.179939) can0 090#00000000
(1544451792.179944) can0 0C6#7FA280007FFFAC34
(1544451792.179948) can0 29A#00000000000003FC
(1544451792.179952) can0 2B7#00E0FFFE01
(1544451792.179956) can0 1F6#1E2081FF80FEFFFE
(1544451792.179960) can0 186#5D522E52E5FFF9
(1544451792.179963) can0 18A#2E500006B600
(1544451792.179967) can0 5DE#0008000000000002
(1544451792.179971) can0 12E#CC7FFC7FF0FFFF00
(1544451792.179975) can0 090#00000000
(1544451792.179979) can0 0C6#7FA280007FFFAE32
(1544451792.199284) can0 242#5280FFFFFFFFFD
(1544451792.199313) can0 29C#0000FFFFFFFFFFFF
(1544451792.199318) can0 354#0000000000000000
(1544451792.199322) can0 217#FEFFF8000000C0
(1544451792.199327) can0 2C6#FFFFFFFFFFF0
(1544451792.199333) can0 1F6#1E2081FF80FEFFFE
(1544451792.199338) can0 186#5D402E52E5FFF9
(1544451792.199342) can0 18A#2E500006B600
(1544451792.199347) can0 673#0018FF49FFFF00
(1544451792.199352) can0 12E#CC7FFD7FF0FFFF00
(1544451792.199356) can0 090#00000000
(1544451792.199360) can0 0C6#7FA280007FFFB030
(1544451792.199365) can0 29A#00000000000004FB
(1544451792.199369) can0 2B7#00E0FFFE01
(1544451792.199373) can0 5D7#000003274250D2
(1544451792.199378) can0 1F6#1E2081FF80FEFFFE
(1544451792.199382) can0 186#5D542E52E5FFF9
(1544451792.199386) can0 18A#2E500006B600
(1544451792.199394) can0 66A#2FFF600101C01F00
(1544451792.199398) can0 511#00671E7165B051
(1544451792.199402) can0 5DA#FF7100004EFFFF00
(1544451792.199407) can0 648#FFFFF07FFE7FFE00
(1544451792.199411) can0 65C#FEFF
(1544451792.199414) can0 657#0000
(1544451792.199418) can0 12E#CC7FFD7FF0FFFF00
(1544451792.219942) can0 090#00000000
(1544451792.219971) can0 0C6#7FA280007FFFB22E
(1544451792.219977) can0 242#5280FFFFFFFFFD
(1544451792.219981) can0 29C#0000FFFFFFFFFFFF
(1544451792.219986) can0 352#5C000000
(1544451792.219990) can0 653#00400800
(1544451792.219996) can0 217#FEFFF8000000C0
(1544451792.220001) can0 2C6#FFFFFFFFFFF0
(1544451792.220005) can0 1F6#1E2081FF80FEFFFE
(1544451792.220010) can0 186#5D302E52E5FFF9
(1544451792.220014) can0 18A#2E500006B600
(1544451792.220018) can0 4AC#80
(1544451792.220022) can0 45C#00000000
(1544451792.220026) can0 575#19F4
(1544451792.220030) can0 5DF#0084
(1544451792.220035) can0 12E#CC7FFC7FE0FFFF00
(1544451792.220039) can0 090#00000000
(1544451792.220044) can0 0C6#7FA280007FFFB42C
(1544451792.220048) can0 29A#00000000000005FA
(1544451792.220052) can0 2B7#00E0FFFE01
(1544451792.220055) can0 666#7D000000
(1544451792.220059) can0 564#EDE0
(1544451792.220063) can0 1F6#1E2081FF80FEFFFE
(1544451792.220067) can0 186#5D542E52E5FFF9
(1544451792.220070) can0 18A#2E500006B600
(1544451792.220074) can0 552#19F4
(1544451792.220079) can0 12E#CC7FFC7FE0FFFF00
(1544451792.220082) can0 090#00000000
(1544451792.220086) can0 0C6#7FA280007FFFB62A
(1544451792.242878) can0 242#5280FFFFFFFFFD
(1544451792.242908) can0 29C#0000FFFFFFFFFFFF
(1544451792.242915) can0 354#0000000000000000
(1544451792.242919) can0 217#FEFFF8000000C0
(1544451792.242924) can0 2C6#FFFFFFFFFFF0
(1544451792.242929) can0 1F6#1E2081FF80FEFFFE
(1544451792.242933) can0 186#5D2E2E52E5FFF9
(1544451792.242938) can0 18A#2E500006B600
(1544451792.242943) can0 12E#CB7FFC7FE0FFFF00
(1544451792.242947) can0 090#00000000
(1544451792.242951) can0 0C6#7FA280007FFFB828
(1544451792.242956) can0 29A#00000000000006F9
(1544451792.242960) can0 2B7#00E0FFFE01
(1544451792.242964) can0 4F8#4A1030FFFF03FF00
(1544451792.242969) can0 1F6#1E2081FF80FEFFFE
(1544451792.242974) can0 186#5D542E52E5FFF9
(1544451792.242978) can0 18A#2E500006B600
(1544451792.242982) can0 12E#CB7FFC7FE0FFFF00
(1544451792.242985) can0 090#00000000
(1544451792.242989) can0 0C6#7FA280007FFFBA26
(1544451792.242993) can0 242#5280FFFFFFFFFD
(1544451792.242997) can0 29C#0000FFFFFFFFFFFF
(1544451792.243001) can0 352#5C000000
(1544451792.243005) can0 3B7#FFFF7FCFFE40
(1544451792.243009) can0 217#FEFFF8000000C0
(1544451792.243013) can0 2C6#FFFFFFFFFFF0
(1544451792.263317) can0 1F6#1E2081FF80FEFFFE
(1544451792.263352) can0 186#5D3E2E52E5FFF9
(1544451792.263359) can0 18A#2E500006B600
(1544451792.263365) can0 500#0289325D9F
(1544451792.263371) can0 12E#CC7FFC7FE0FFFF00
(1544451792.263379) can0 090#00000000
(1544451792.263384) can0 0C6#7FA280007FFFBC24
(1544451792.263390) can0 29A#00000000000007F8
(1544451792.263396) can0 2B7#00E0FFFE01
(1544451792.263402) can0 1F6#1E2081FF80FEFFFE
(1544451792.263408) can0 186#5D542E52E5FFF9
(1544451792.263419) can0 18A#2E500006B600
(1544451792.263425) can0 2BC#9467900BB7446BD3
(1544451792.263429) can0 350#C716B99414986485
(1544451792.263434) can0 55D#00D5600092800000
(1544451792.263438) can0 12E#CC7FFC7FE0FFFF00
(1544451792.263442) can0 090#00000000
(1544451792.263446) can0 0C6#7FA280007FFFBE22
(1544451792.263450) can0 242#5280FFFFFFFFFD
(1544451792.263454) can0 29C#0000FFFFFFFFFFFF
(1544451792.263458) can0 354#0000000000000000
(1544451792.263463) can0 217#FEFFF8000000C0
(1544451792.263467) can0 2C6#FFFFFFFFFFF0
(1544451792.263470) can0 1F6#1E2081FF80FEFFFE
(1544451792.289686) can0 186#5D302E52E5FFF9
(1544451792.289721) can0 18A#2E500006B600
(1544451792.289728) can0 12E#CC7FFE7FE0FFFF00
(1544451792.289733) can0 090#00000000
(1544451792.289738) can0 0C6#7FA280007FFFA040
(1544451792.289742) can0 29A#00000000000008F7
(1544451792.289747) can0 2B7#00E0FFFE01
(1544451792.289753) can0 1F6#1E2081FF80FEFFFE
(1544451792.289757) can0 186#5D542E52E5FFF9
(1544451792.289762) can0 18A#2E500006B600
(1544451792.289766) can0 5DE#0008000000000002
(1544451792.289770) can0 12E#CC7FFE7FE0FFFF00
(1544451792.289774) can0 090#00000000
(1544451792.289778) can0 0C6#7FA280007FFFA23E
(1544451792.289783) can0 242#5280FFFFFFFFFD
(1544451792.289787) can0 29C#0000FFFFFFFFFFFF
(1544451792.289791) can0 352#5C000000
(1544451792.289795) can0 217#FEFFF8000000C0
(1544451792.289799) can0 2C6#FFFFFFFFFFF0
(1544451792.289802) can0 1F6#1E2081FF80FEFFFE
(1544451792.289806) can0 186#5D302E52E5FFF9
(1544451792.289809) can0 18A#2E500006B600
(1544451792.289813) can0 673#0018FF49FFFF00
(1544451792.289818) can0 12E#CC7FFC7FF0FFFF00
(1544451792.289822) can0 090#00000000
(1544451792.289825) can0 0C6#7FA280007FFFA43C
(1544451792.309309) can0 29A#00000000000009F6
(1544451792.309342) can0 2B7#00E0FFFE01
(1544451792.309348) can0 5D7#000003274250D2
(1544451792.309353) can0 1F6#1E2081FF80FEFFFE
(1544451792.309360) can0 186#5D622E52E5FFF9
(1544451792.309367) can0 18A#2E500006B600
(1544451792.309372) can0 66A#2FFF600101C01F00
(1544451792.309378) can0 511#00A6E72AD0BD34
(1544451792.309384) can0 5DA#FF7100004EFFFF00
(1544451792.309391) can0 648#FFFFF07FFE7FFE00
(1544451792.309395) can0 657#0000
(1544451792.309400) can0 65C#FEFF
(1544451792.309406) can0 12E#CC7FFC7FF0FFFF00
(1544451792.309413) can0 090#00000000
(1544451792.309419) can0 0C6#7FA280007FFFA63A
(1544451792.309424) can0 242#5280FFFFFFFFFD
(1544451792.309429) can0 29C#0000FFFFFFFFFFFF
(1544451792.309435) can0 354#0000000000000000
(1544451792.309440) can0 653#00400800
(1544451792.309446) can0 217#FEFFF8000000C0
(1544451792.309451) can0 2C6#FFFFFFFFFFF0
(1544451792.309456) can0 1F6#1E2081FF80FEFFFE
(1544451792.309461) can0 186#5D302E52E5FFF9
(1544451792.309468) can0 18A#2E500006B600
(1544451792.309471) can0 4AC#80
(1544451792.309476) can0 45C#00000000
(1544451792.309479) can0 575#1574
(1544451792.309482) can0 5DF#0084
(1544451792.330145) can0 12E#CD7FFB7FF0FFFF00
(1544451792.330173) can0 090#00000000
(1544451792.330179) can0 0C6#7FA280007FFFA838
(1544451792.330186) can0 29A#0000000000000AF5
(1544451792.330190) can0 2B7#00E0FFFE01
(1544451792.330194) can0 666#7D000000
(1544451792.330202) can0 564#D640
(1544451792.330207) can0 1F6#1E2081FF80FEFFFE
(1544451792.330211) can0 186#5D542E52E5FFF9
(1544451792.330216) can0 18A#2E500006B600
(1544451792.330220) can0 552#1574
(1544451792.330224) can0 12E#CD7FFB7FF0FFFF00
(1544451792.330228) can0 090#00000000
(1544451792.330233) can0 0C6#7FA280007FFFAA36
(1544451792.330237) can0 242#5280FFFFFFFFFD
(1544451792.330241) can0 29C#0000FFFFFFFFFFFF
(1544451792.330246) can0 352#5C000000
(1544451792.330251) can0 217#FEFFF8000000C0
(1544451792.330255) can0 2C6#FFFFFFFFFFF0
(1544451792.330258) can0 1F6#1E2081FF80FEFFFE
(1544451792.330262) can0 186#5D302E52E5FFF9
(1544451792.330266) can0 18A#2E500006B600
(1544451792.330270) can0 12E#CD7FFC7FF0FFFF00
(1544451792.330274) can0 090#00000000
(1544451792.330278) can0 0C6#7FA280007FFFAC34
(1544451792.330282) can0 29A#0000000000000BF4
(1544451792.330285) can0 2B7#00E0FFFE01
(1544451792.355937) can0 4F8#4A1030FFFF03FF00
(1544451792.355967) can0 1F6#1E2081FF80FEFFFE
(1544451792.355973) can0 186#5D522E52E5FFF9
(1544451792.355980) can0 18A#2E500006B600
(1544451792.355988) can0 12E#CD7FFC7FF0FFFF00
(1544451792.355994) can0 090#00000000
(1544451792.356000) can0 0C6#7FA280007FFFAE32
(1544451792.356006) can0 242#5280FFFFFFFFFD
(1544451792.356011) can0 29C#0000FFFFFFFFFFFF
(1544451792.356016) can0 354#0000000000000000
(1544451792.356021) can0 3B7#FFFF7FCFFE40
(1544451792.356026) can0 217#FEFFF8000000C0
(1544451792.356031) can0 2C6#FFFFFFFFFFF0
(1544451792.356037) can0 1F6#1E2081FF80FEFFFE
(1544451792.356042) can0 186#5D302E52E5FFF9
(1544451792.356047) can0 18A#2E500006B600
(1544451792.356052) can0 500#02CFA88957
(1544451792.356056) can0 12E#CC7FFC7FF0FFFF00
(1544451792.356060) can0 090#00000000
(1544451792.356065) can0 0C6#7FA280007FFFB030
(1544451792.356070) can0 29A#0000000000000CF3
(1544451792.356076) can0 2B7#00E0FFFE01
(1544451792.356082) can0 1F6#1E2081FF80FEFFFE
(1544451792.356087) can0 186#5D622E52E5FFF9
(1544451792.356092) can0 18A#2E500006B600
(1544451792.379768) can0 2BC#94AA364EB5ADC93B
(1544451792.379802) can0 350#C716B99414986485
(1544451792.379808) can0 55D#00D5600092800000
(1544451792.379814) can0 12E#CC7FFC7FF0FFFF00
(1544451792.379819) can0 090#00000000
(1544451792.379825) can0 0C6#7FA280007FFFB22E
(1544451792.379832) can0 242#5280FFFFFFFFFD
(1544451792.379838) can0 29C#0000FFFFFFFFFFFF
(1544451792.379842) can0 352#5C000000
(1544451792.379848) can0 217#FEFFF8000000C0
(1544451792.379853) can0 2C6#FFFFFFFFFFF0
(1544451792.379859) can0 1F6#1E2081FF80FEFFFE
(1544451792.379865) can0 186#5D322E52E5FFF9
(1544451792.379871) can0 18A#2E500006B600
(1544451792.379877) can0 12E#CD7FFC7FE0FFFF00
(1544451792.379882) can0 090#00000000
(1544451792.379887) can0 0C6#7FA280007FFFB42C
(1544451792.379893) can0 29A#0000000000000DF2
(1544451792.379898) can0 2B7#00E0FFFE01
(1544451792.379903) can0 1F6#1E2081FF80FEFFFE
(1544451792.379909) can0 186#5D522E52E5FFF9
(1544451792.379913) can0 18A#2E500006B600
(1544451792.379918) can0 5DE#0008000000000002
(1544451792.379922) can0 12E#CD7FFC7FE0FFFF00
(1544451792.379925) can0 090#00000000
(1544451792.399355) can0 0C6#7FA280007FFFB62A
(1544451792.399386) can0 242#5280FFFFFFFFFD
(1544451792.399395) can0 29C#0000FFFFFFFFFFFF
(1544451792.399400) can0 354#0000000000000000
(1544451792.399404) can0 217#FEFFF8000000C0
(1544451792.399408) can0 2C6#FFFFFFFFFFF0
(1544451792.399415) can0 1F6#1E2081FF80FEFFFE
(1544451792.399421) can0 186#5D322E52E5FFF9
(1544451792.399425) can0 18A#2E500006B600
(1544451792.399430) can0 673#0018FF49FFFF00
(1544451792.399435) can0 12E#CD7FFC7FD0FFFF00
(1544451792.399440) can0 090#00000000
(1544451792.399445) can0 0C6#7FA280007FFFB828
(1544451792.399450) can0 29A#0000000000000EF1
(1544451792.399455) can0 2B7#00E0FFFE01
(1544451792.399459) can0 5D7#000003274250D2
(1544451792.399463) can0 1F6#1E2081FF80FEFFFE
(1544451792.399468) can0 186#5D522E52E5FFF9
(1544451792.399472) can0 18A#2E500006B600
(1544451792.399477) can0 66A#2FFF600101C01F00
(1544451792.399481) can0 511#00E5B0E33BCA17
(1544451792.399487) can0 5DA#FF7100004EFFFF00
(1544451792.399492) can0 648#FFFFF07FFE7FFE00
(1544451792.399495) can0 657#0000
(1544451792.399499) can0 65C#FEFF
(1544451792.419729) can0 12E#CD7FFC7FD0FFFF00
(1544451792.419755) can0 090#00000000
(1544451792.419760) can0 0C6#7FA280007FFFBA26
(1544451792.419764) can0 242#5280FFFFFFFFFD
(1544451792.419768) can0 29C#0000FFFFFFFFFFFF
(1544451792.419772) can0 352#5C000000
(1544451792.419777) can0 653#00400800
(1544451792.419781) can0 217#FEFFF8000000C0
(1544451792.419784) can0 2C6#FFFFFFFFFFF0
(1544451792.419788) can0 1F6#1E2081FF80FEFFFE
(1544451792.419792) can0 186#5D3E2E52E5FFF9
(1544451792.419796) can0 18A#2E500006B600
(1544451792.419799) can0 4AC#80
(1544451792.419802) can0 45C#00000000
(1544451792.419806) can0 575#3BB4
(1544451792.419809) can0 5DF#0084
(1544451792.419813) can0 12E#CC7FFE7FD0FFFF00
(1544451792.419817) can0 090#00000000
(1544451792.419821) can0 0C6#7FA280007FFFBC24
(1544451792.419825) can0 29A#0000000000000FF0
(1544451792.419828) can0 2B7#00E0FFFE01
(1544451792.419831) can0 666#7D000000
(1544451792.419834) can0 564#DF20
(1544451792.419838) can0 1F6#1E2081FF80FEFFFE
(1544451792.419841) can0 186#5D542E52E5FFF9
(1544451792.419844) can0 18A#2E500006B600
(1544451792.419849) can0 552#3BB4
(1544451792.419853) can0 12E#CC7FFE7FD0FFFF00
(1544451792.419856) can0 090#00000000
(1544451792.442783) can0 0C6#7FA280007FFFBE22
(1544451792.442810) can0 242#5280FFFFFFFFFD
(1544451792.442816) can0 29C#0000FFFFFFFFFFFF
(1544451792.442820) can0 354#0000000000000000
(1544451792.442824) can0 217#FEFFF8000000C0
(1544451792.442828) can0 2C6#FFFFFFFFFFF0
(1544451792.442832) can0 1F6#1E2081FF80FEFFFE
(1544451792.442836) can0 186#5D302E52E5FFF9
(1544451792.442840) can0 18A#2E500006B600
(1544451792.442844) can0 12E#CC7FFE7FD0FFFF00
(1544451792.442847) can0 090#00000000
(1544451792.442851) can0 0C6#7FA280007FFFA040
(1544451792.442855) can0 29A#00000000000000FF
(1544451792.442858) can0 2B7#00E0FFFE01
(1544451792.442862) can0 4F8#4A1030FFFF03FF00
(1544451792.442865) can0 1F6#1E2081FF80FEFFFE
(1544451792.442869) can0 186#5D542E52E5FFF9
(1544451792.442872) can0 18A#2E500006B600
(1544451792.442876) can0 12E#CC7FFE7FD0FFFF00
(1544451792.442879) can0 090#00000000
(1544451792.442882) can0 0C6#7FA280007FFFA23E
(1544451792.442890) can0 242#5280FFFFFFFFFD
(1544451792.442894) can0 29C#0000FFFFFFFFFFFF
(1544451792.442896) can0 352#5C000000
(1544451792.442901) can0 3B7#FFFF7FCFFE40
(1544451792.442904) can0 217#FEFFF8000000C0
(1544451792.463483) can0 2C6#FFFFFFFFFFF0
(1544451792.463514) can0 1F6#1E2081FF80FEFFFE
(1544451792.463520) can0 186#5D302E52E5FFF9
(1544451792.463525) can0 18A#2E500006B600
(1544451792.463530) can0 500#02B9A3A7BB
(1544451792.463536) can0 12E#CD7FFC7FE0FFFF00
(1544451792.463541) can0 090#00000000
(1544451792.463545) can0 0C6#7FA280007FFFA43C
(1544451792.463550) can0 29A#00000000000001FE
(1544451792.463554) can0 2B7#00E0FFFE01
(1544451792.463559) can0 1F6#1E2081FF80FEFFFE
(1544451792.463563) can0 186#5D522E52E5FFF9
(1544451792.463567) can0 18A#2E500006B600
(1544451792.463572) can0 2BC#9485120DD4FF7D19
(1544451792.463577) can0 350#C716B99414986485
(1544451792.463582) can0 55D#00D5600092800000
(1544451792.463607) can0 12E#CD7FFC7FE0FFFF00
(1544451792.463612) can0 090#00000000
(1544451792.463617) can0 0C6#7FA280007FFFA63A
(1544451792.463622) can0 242#5280FFFFFFFFFD
(1544451792.463628) can0 29C#0000FFFFFFFFFFFF
(1544451792.463634) can0 354#0000000000000000
(1544451792.463639) can0 217#FEFFF8000000C0
(1544451792.463643) can0 2C6#FFFFFFFFFFF0
(1544451792.463647) can0 1F6#1E2081FF80FEFFFE
(1544451792.489689) can0 186#5D402E52E5FFF9
(1544451792.489722) can0 18A#2E500006B600
(1544451792.489729) can0 12E#CC7FFC7FF0FFFF00
(1544451792.489734) can0 090#00000000
(1544451792.489740) can0 0C6#7FA280007FFFA838
(1544451792.489745) can0 29A#00000000000002FD
(1544451792.489753) can0 2B7#00E0FFFE01
(1544451792.489759) can0 1F6#1E2081FF80FEFFFE
(1544451792.489764) can0 186#5D542E52E5FFF9
(1544451792.489769) can0 18A#2E500006B600
(1544451792.489775) can0 5DE#0008000000000002
(1544451792.489781) can0 12E#CC7FFC7FF0FFFF00
(1544451792.489786) can0 090#00000000
(1544451792.489792) can0 0C6#7FA280007FFFAA36
(1544451792.489798) can0 242#5280FFFFFFFFFD
(1544451792.489803) can0 29C#0000FFFFFFFFFFFF
(1544451792.489807) can0 352#5C000000
(1544451792.489812) can0 217#FEFFF8000000C0
(1544451792.489818) can0 2C6#FFFFFFFFFFF0
(1544451792.489823) can0 1F6#1E2081FF80FEFFFE
(1544451792.489828) can0 186#5D2E2E52E5FFF9
(1544451792.489834) can0 18A#2E500006B600
(1544451792.489840) can0 673#0018FF49FFFF00
(1544451792.489846) can0 12E#CC7FFC7FF0FFFF00
(1544451792.489850) can0 090#00000000
(1544451792.506141) can0 0C6#7FA280007FFFAC34
(1544451792.506171) can0 29A#00000000000003FC
(1544451792.506176) can0 2B7#00E0FFFE01
(1544451792.506181) can0 5D7#000003274250D2
(1544451792.506186) can0 1F6#1E2081FF80FEFFFE
(1544451792.506190) can0 186#5D542E52E5FFF9
(1544451792.506196) can0 18A#2E500006B600
(1544451792.506201) can0 66A#2FFF600101C01F00
(1544451792.506205) can0 511#0024799CA6D7FA
(1544451792.506210) can0 5DA#FF7100004EFFFF00
(1544451792.506215) can0 648#FFFFF07FFE7FFE00
(1544451792.506218) can0 65C#FEFF
(1544451792.506222) can0 657#0000
(1544451792.506226) can0 12E#CC7FFC7FF0FFFF00
(1544451792.506231) can0 090#00000000
(1544451792.506237) can0 0C6#7FA280007FFFAE32
(1544451792.506242) can0 242#5280FFFFFFFFFD
(1544451792.506249) can0 29C#0000FFFFFFFFFFFF
(1544451792.506260) can0 354#0000000000000000
(1544451792.506265) can0 653#00400800
(1544451792.506270) can0 217#FEFFF8000000C0
(1544451792.506275) can0 2C6#FFFFFFFFFFF0
(1544451792.506279) can0 1F6#1E2081FF80FEFFFE
(1544451792.506286) can0 186#5D302E52E5FFF9
(1544451792.506290) can0 18A#2E500006B600
(1544451792.506294) can0 4AC#80
(1544451792.506298) can0 45C#00000000
(1544451792.529813) can0 575#1FD4
(1544451792.529842) can0 5DF#0084
(1544451792.529847) can0 12E#CC7FFC7FE0FFFF00
(1544451792.529852) can0 090#00000000
(1544451792.529858) can0 0C6#7FA280007FFFB030
(1544451792.529863) can0 29A#00000000000004FB
(1544451792.529867) can0 2B7#00E0FFFE01
(1544451792.529872) can0 666#7D000000
(1544451792.529876) can0 564#E3D0
(1544451792.529880) can0 1F6#1E2081FF80FEFFFE
(1544451792.529885) can0 186#5D622E52E5FFF9
(1544451792.529889) can0 18A#2E500006B600
(1544451792.529893) can0 552#1FD4
(1544451792.529898) can0 12E#CC7FFC7FE0FFFF00
(1544451792.529902) can0 090#00000000
(1544451792.529906) can0 0C6#7FA280007FFFB22E
(1544451792.529911) can0 242#5280FFFFFFFFFD
(1544451792.529915) can0 29C#0000FFFFFFFFFFFF
(1544451792.529919) can0 352#5C000000
(1544451792.529923) can0 217#FEFFF8000000C0
(1544451792.529927) can0 2C6#FFFFFFFFFFF0
(1544451792.529930) can0 1F6#1E2081FF80FEFFFE
(1544451792.529934) can0 186#5D302E52E5FFF9
(1544451792.529938) can0 18A#2E500006B600
(1544451792.529943) can0 12E#CC7FFC7FD0FFFF00
(1544451792.529947) can0 090#00000000
(1544451792.529950) can0 0C6#7FA280007FFFB42C
(1544451792.529954) can0 29A#00000000000005FA
(1544451792.553699) can0 2B7#00E0FFFE01
(1544451792.553729) can0 4F8#4A1030FFFF03FF00
(1544451792.553735) can0 1F6#1E2081FF80FEFFFE
(1544451792.553741) can0 186#5D542E52E5FFF9
(1544451792.553746) can0 18A#2E500006B600
(1544451792.553750) can0 12E#CC7FFC7FD0FFFF00
(1544451792.553755) can0 090#00000000
(1544451792.553760) can0 0C6#7FA280007FFFB62A
(1544451792.553764) can0 242#5280FFFFFFFFFD
(1544451792.553769) can0 29C#0000FFFFFFFFFFFF
(1544451792.553773) can0 354#0000000000000000
(1544451792.553777) can0 3B7#FFFF7FCFFE40
(1544451792.553782) can0 217#FEFFF8000000C0
(1544451792.553786) can0 2C6#FFFFFFFFFFF0
(1544451792.553790) can0 1F6#1E2081FF80FEFFFE
(1544451792.553794) can0 186#5D302E52E5FFF9
(1544451792.553799) can0 18A#2E500006B600
(1544451792.553803) can0 500#0234A9DDFD
(1544451792.553807) can0 12E#CC7FFC7FD0FFFF00
(1544451792.553810) can0 090#00000000
(1544451792.553814) can0 0C6#7FA280007FFFB828
(1544451792.553818) can0 29A#00000000000006F9
(1544451792.553822) can0 2B7#00E0FFFE01
(1544451792.553826) can0 1F6#1E2081FF80FEFFFE
(1544451792.553829) can0 186#5D542E52E5FFF9
(1544451792.579377) can0 18A#2E500006B600
(1544451792.579406) can0 2BC#94AD28AAD09E6473
(1544451792.579411) can0 350#C716B99414986485
(1544451792.579416) can0 55D#00D5600092800000
(1544451792.579421) can0 12E#CC7FFC7FD0FFFF00
(1544451792.579425) can0 090#00000000
(1544451792.579432) can0 0C6#7FA280007FFFBA26
(1544451792.579436) can0 242#5280FFFFFFFFFD
(1544451792.579441) can0 29C#0000FFFFFFFFFFFF
(1544451792.579445) can0 352#5C000000
(1544451792.579449) can0 217#FEFFF8000000C0
(1544451792.579458) can0 2C6#FFFFFFFFFFF0
(1544451792.579463) can0 1F6#1E2081FF80FEFFFE
(1544451792.579467) can0 186#5D2E2E52E5FFF9
(1544451792.579471) can0 18A#2E500006B600
(1544451792.579475) can0 12E#CC7FFC7FD0FFFF00
(1544451792.579480) can0 090#00000000
(1544451792.579484) can0 0C6#7FA280007FFFBC24
(1544451792.579488) can0 29A#00000000000007F8
(1544451792.579491) can0 2B7#00E0FFFE01
(1544451792.579495) can0 1F6#1E2081FF80FEFFFE
(1544451792.579499) can0 186#5D622E52E5FFF9
(1544451792.579503) can0 18A#2E500006B600
(1544451792.579507) can0 5DE#0008000000000002
(1544451792.579512) can0 12E#CC7FFC7FD0FFFF00
(1544451792.599291) can0 090#00000000
(1544451792.599322) can0 0C6#7FA280007FFFBE22
(1544451792.599328) can0 242#5280FFFFFFFFFD
(1544451792.599333) can0 29C#0000FFFFFFFFFFFF
(1544451792.599338) can0 354#0000000000000000
(1544451792.599343) can0 217#FEFFF8000000C0
(1544451792.599349) can0 2C6#FFFFFFFFFFF0
(1544451792.599354) can0 1F6#1E2081FF80FEFFFE
(1544451792.599358) can0 186#5D322E52E5FFF9
(1544451792.599362) can0 18A#2E500006B600
(1544451792.599367) can0 673#0018FF49FFFF00
(1544451792.599372) can0 12E#CC7FFC7FE0FFFF00
(1544451792.599376) can0 090#00000000
(1544451792.599381) can0 0C6#7FA280007FFFA040
(1544451792.599386) can0 29A#00000000000008F7
(1544451792.599391) can0 2B7#00E0FFFE01
(1544451792.599395) can0 5D7#000003274250D2
(1544451792.599399) can0 1F6#1E2081FF80FEFFFE
(1544451792.599403) can0 186#5D522E52E5FFF9
(1544451792.599407) can0 18A#2E500006B600
(1544451792.599412) can0 66A#2FFF600101C01F00
(1544451792.599416) can0 511#0063425511E4DD
(1544451792.599423) can0 5DA#FF7100004EFFFF00
(1544451792.599426) can0 648#FFFFF07FFE7FFE00
(1544451792.599429) can0 657#0000
(1544451792.599432) can0 65C#FEFF
(1544451792.619528) can0 12E#CC7FFC7FE0FFFF00
(1544451792.619556) can0 090#00000000
(1544451792.619562) can0 0C6#7FA280007FFFA23E
(1544451792.619566) can0 242#5280FFFFFFFFFD
(1544451792.619571) can0 29C#0000FFFFFFFFFFFF
(1544451792.619576) can0 352#5C000000
(1544451792.619581) can0 653#00400800
(1544451792.619586) can0 217#FEFFF8000000C0
(1544451792.619590) can0 2C6#FFFFFFFFFFF0
(1544451792.619595) can0 1F6#1E2081FF80FEFFFE
(1544451792.619599) can0 186#5D322E52E5FFF9
(1544451792.619603) can0 18A#2E500006B600
(1544451792.619607) can0 4AC#80
(1544451792.619611) can0 45C#00000000
(1544451792.619615) can0 575#2EB4
(1544451792.619619) can0 5DF#0084
(1544451792.619625) can0 12E#CD7FFC7FF0FFFF00
(1544451792.619629) can0 090#00000000
(1544451792.619633) can0 0C6#7FA280007FFFA43C
(1544451792.619637) can0 29A#00000000000009F6
(1544451792.619640) can0 2B7#00E0FFFE01
(1544451792.619644) can0 666#7D000000
(1544451792.619648) can0 564#CA00
(1544451792.619652) can0 1F6#1E2081FF80FEFFFE
(1544451792.619656) can0 186#5D522E52E5FFF9
(1544451792.619661) can0 18A#2E500006B600
(1544451792.619664) can0 552#2EB4
(1544451792.619668) can0 12E#CD7FFC7FF0FFFF00
(1544451792.619672) can0 090#00000000
(1544451792.642773) can0 0C6#7FA280007FFFA63A
(1544451792.642804) can0 242#5280FFFFFFFFFD
(1544451792.642812) can0 29C#0000FFFFFFFFFFFF
(1544451792.642816) can0 354#0000000000000000
(1544451792.642824) can0 217#FEFFF8000000C0
(1544451792.642829) can0 2C6#FFFFFFFFFFF0
(1544451792.642833) can0 1F6#1E2081FF80FEFFFE
(1544451792.642838) can0 186#5D302E52E5FFF9
(1544451792.642843) can0 18A#2E500006B600
(1544451792.642848) can0 12E#CD7FFC7FF0FFFF00
(1544451792.642852) can0 090#00000000
(1544451792.642858) can0 0C6#7FA280007FFFA838
(1544451792.642863) can0 29A#0000000000000AF5
(1544451792.642868) can0 2B7#00E0FFFE01
(1544451792.642872) can0 4F8#4A1030FFFF03FF00
(1544451792.642876) can0 1F6#1E2081FF80FEFFFE
(1544451792.642881) can0 186#5D622E52E5FFF9
(1544451792.642885) can0 18A#2E500006B600
(1544451792.642889) can0 12E#CD7FFC7FF0FFFF00
(1544451792.642893) can0 090#00000000
(1544451792.642898) can0 0C6#7FA280007FFFAA36
(1544451792.642903) can0 242#5280FFFFFFFFFD
(1544451792.642907) can0 29C#0000FFFFFFFFFFFF
(1544451792.642911) can0 352#5C000000
(1544451792.642916) can0 3B7#FFFF7FCFFE40
(1544451792.662845) can0 217#FEFFF8000000C0
(1544451792.662871) can0 2C6#FFFFFFFFFFF0
(1544451792.662876) can0 1F6#1E2081FF80FEFFFE
(1544451792.662880) can0 186#5D302E52E5FFF9
(1544451792.662883) can0 18A#2E500006B600
(1544451792.662887) can0 500#021807FEEB
(1544451792.662893) can0 12E#CC7FFC7FF0FFFF00
(1544451792.662897) can0 090#00000000
(1544451792.662901) can0 0C6#7FA280007FFFAC34
(1544451792.662904) can0 29A#0000000000000BF4
(1544451792.662908) can0 2B7#00E0FFFE01
(1544451792.662912) can0 646#03FFFFFFFFFFFFF0
(1544451792.662915) can0 1F6#1E2081FF80FEFFFE
(1544451792.662919) can0 186#5D542E52E5FFF9
(1544451792.662922) can0 18A#2E500006B600
(1544451792.662926) can0 2BC#9468179BA522AAD3
(1544451792.662930) can0 350#C716B99414986485
(1544451792.662934) can0 55D#00D5600092800000
(1544451792.662937) can0 12E#CC7FFC7FF0FFFF00
(1544451792.662940) can0 090#00000000
(1544451792.662943) can0 0C6#7FA280007FFFAE32
(1544451792.662946) can0 242#5280FFFFFFFFFD
(1544451792.662950) can0 29C#0000FFFFFFFFFFFF
(1544451792.662953) can0 354#0000000000000000
(1544451792.662956) can0 217#FEFFF8000000C0
(1544451792.689259) can0 2C6#FFFFFFFFFFF0
(1544451792.689286) can0 1F6#1E2081FF80FEFFFE
(1544451792.689290) can0 186#5D302E52E5FFF9
(1544451792.689295) can0 18A#2E500006B600
(1544451792.689299) can0 12E#CC7FFC7FF0FFFF00
(1544451792.689303) can0 090#00000000
(1544451792.689308) can0 0C6#7FA280007FFFB030
(1544451792.689312) can0 29A#0000000000000CF3
(1544451792.689316) can0 2B7#00E0FFFE01
(1544451792.689320) can0 1F6#1E2081FF80FEFFFE
(1544451792.689324) can0 186#5D522E52E5FFF9
(1544451792.689327) can0 18A#2E500006B600
(1544451792.689330) can0 5DE#0008000000000002
(1544451792.689334) can0 12E#CC7FFC7FF0FFFF00
(1544451792.689337) can0 090#00000000
(1544451792.689341) can0 0C6#7FA280007FFFB22E
(1544451792.689345) can0 242#5280FFFFFFFFFD
(1544451792.689349) can0 29C#0000FFFFFFFFFFFF
(1544451792.689352) can0 352#5C000000
(1544451792.689356) can0 217#FEFFF8000000C0
(1544451792.689359) can0 2C6#FFFFFFFFFFF0
(1544451792.689362) can0 1F6#1E2081FF80FEFFFE
(1544451792.689366) can0 186#5D402E52E5FFF9
(1544451792.689369) can0 18A#2E500006B600
(1544451792.689372) can0 673#0018FF49FFFF00
(1544451792.703657) can0 12E#CC7FFE7FF0FFFF00
(1544451792.703688) can0 090#00000000
